!Agilent Technologies,E5072A,MY51200456,A.01.14
!Date: Tue Nov 19 12:28:30 2019
!Data & Calibration Information:
!Freq	S11:NONE(--)	S21:NONE(--)	S12:NONE(--)	S22:NONE(--)
!PortZ  Port1:50+j0    Port2:50+j0
!Above PortZ is port z conversion or system Z0 setting when saving the data.
!When reading, reference impedance value at option line is always used.
# Hz S RI R 50
140000000	0.000000e+000	0.000000e+000	-9.293716e-002	1.269531e-001	0.000000e+000	0.000000e+000	0.000000e+000	0.000000e+000
140100000	0.000000e+000	0.000000e+000	-9.123166e-002	1.263841e-001	0.000000e+000	0.000000e+000	0.000000e+000	0.000000e+000
140200000	0.000000e+000	0.000000e+000	-8.940722e-002	1.259193e-001	0.000000e+000	0.000000e+000	0.000000e+000	0.000000e+000
140300000	0.000000e+000	0.000000e+000	-8.776287e-002	1.254161e-001	0.000000e+000	0.000000e+000	0.000000e+000	0.000000e+000
140400000	0.000000e+000	0.000000e+000	-8.606077e-002	1.249724e-001	0.000000e+000	0.000000e+000	0.000000e+000	0.000000e+000
140500000	0.000000e+000	0.000000e+000	-8.443656e-002	1.245498e-001	0.000000e+000	0.000000e+000	0.000000e+000	0.000000e+000
140600000	0.000000e+000	0.000000e+000	-8.305544e-002	1.238809e-001	0.000000e+000	0.000000e+000	0.000000e+000	0.000000e+000
140700000	0.000000e+000	0.000000e+000	-8.122000e-002	1.233237e-001	0.000000e+000	0.000000e+000	0.000000e+000	0.000000e+000
140800000	0.000000e+000	0.000000e+000	-7.963832e-002	1.228766e-001	0.000000e+000	0.000000e+000	0.000000e+000	0.000000e+000
140900000	0.000000e+000	0.000000e+000	-7.806262e-002	1.221476e-001	0.000000e+000	0.000000e+000	0.000000e+000	0.000000e+000
141000000	0.000000e+000	0.000000e+000	-7.656361e-002	1.215536e-001	0.000000e+000	0.000000e+000	0.000000e+000	0.000000e+000
141100000	0.000000e+000	0.000000e+000	-7.489760e-002	1.209114e-001	0.000000e+000	0.000000e+000	0.000000e+000	0.000000e+000
141200000	0.000000e+000	0.000000e+000	-7.344921e-002	1.203252e-001	0.000000e+000	0.000000e+000	0.000000e+000	0.000000e+000
141300000	0.000000e+000	0.000000e+000	-7.196697e-002	1.195263e-001	0.000000e+000	0.000000e+000	0.000000e+000	0.000000e+000
141400000	0.000000e+000	0.000000e+000	-7.046285e-002	1.189405e-001	0.000000e+000	0.000000e+000	0.000000e+000	0.000000e+000
141500000	0.000000e+000	0.000000e+000	-6.883707e-002	1.182728e-001	0.000000e+000	0.000000e+000	0.000000e+000	0.000000e+000
141600000	0.000000e+000	0.000000e+000	-6.736689e-002	1.175626e-001	0.000000e+000	0.000000e+000	0.000000e+000	0.000000e+000
141700000	0.000000e+000	0.000000e+000	-6.594259e-002	1.168860e-001	0.000000e+000	0.000000e+000	0.000000e+000	0.000000e+000
141800000	0.000000e+000	0.000000e+000	-6.441798e-002	1.159905e-001	0.000000e+000	0.000000e+000	0.000000e+000	0.000000e+000
141900000	0.000000e+000	0.000000e+000	-6.285841e-002	1.154229e-001	0.000000e+000	0.000000e+000	0.000000e+000	0.000000e+000
142000000	0.000000e+000	0.000000e+000	-6.147208e-002	1.146602e-001	0.000000e+000	0.000000e+000	0.000000e+000	0.000000e+000
142100000	0.000000e+000	0.000000e+000	-6.012458e-002	1.137482e-001	0.000000e+000	0.000000e+000	0.000000e+000	0.000000e+000
142200000	0.000000e+000	0.000000e+000	-5.870488e-002	1.129926e-001	0.000000e+000	0.000000e+000	0.000000e+000	0.000000e+000
142300000	0.000000e+000	0.000000e+000	-5.741141e-002	1.121369e-001	0.000000e+000	0.000000e+000	0.000000e+000	0.000000e+000
142400000	0.000000e+000	0.000000e+000	-5.587794e-002	1.113712e-001	0.000000e+000	0.000000e+000	0.000000e+000	0.000000e+000
142500000	0.000000e+000	0.000000e+000	-5.448494e-002	1.104477e-001	0.000000e+000	0.000000e+000	0.000000e+000	0.000000e+000
142600000	0.000000e+000	0.000000e+000	-5.315575e-002	1.096695e-001	0.000000e+000	0.000000e+000	0.000000e+000	0.000000e+000
142700000	0.000000e+000	0.000000e+000	-5.190098e-002	1.089506e-001	0.000000e+000	0.000000e+000	0.000000e+000	0.000000e+000
142800000	0.000000e+000	0.000000e+000	-5.064210e-002	1.077276e-001	0.000000e+000	0.000000e+000	0.000000e+000	0.000000e+000
142900000	0.000000e+000	0.000000e+000	-4.942390e-002	1.070121e-001	0.000000e+000	0.000000e+000	0.000000e+000	0.000000e+000
143000000	0.000000e+000	0.000000e+000	-4.799830e-002	1.060483e-001	0.000000e+000	0.000000e+000	0.000000e+000	0.000000e+000
143100000	0.000000e+000	0.000000e+000	-4.677821e-002	1.051058e-001	0.000000e+000	0.000000e+000	0.000000e+000	0.000000e+000
143200000	0.000000e+000	0.000000e+000	-4.558148e-002	1.042473e-001	0.000000e+000	0.000000e+000	0.000000e+000	0.000000e+000
143300000	0.000000e+000	0.000000e+000	-4.433222e-002	1.032877e-001	0.000000e+000	0.000000e+000	0.000000e+000	0.000000e+000
143400000	0.000000e+000	0.000000e+000	-4.320139e-002	1.022396e-001	0.000000e+000	0.000000e+000	0.000000e+000	0.000000e+000
143500000	0.000000e+000	0.000000e+000	-4.195756e-002	1.013318e-001	0.000000e+000	0.000000e+000	0.000000e+000	0.000000e+000
143600000	0.000000e+000	0.000000e+000	-4.077743e-002	1.003343e-001	0.000000e+000	0.000000e+000	0.000000e+000	0.000000e+000
143700000	0.000000e+000	0.000000e+000	-3.953264e-002	9.935663e-002	0.000000e+000	0.000000e+000	0.000000e+000	0.000000e+000
143800000	0.000000e+000	0.000000e+000	-3.851361e-002	9.830315e-002	0.000000e+000	0.000000e+000	0.000000e+000	0.000000e+000
143900000	0.000000e+000	0.000000e+000	-3.728370e-002	9.719662e-002	0.000000e+000	0.000000e+000	0.000000e+000	0.000000e+000
144000000	0.000000e+000	0.000000e+000	-3.628281e-002	9.621366e-002	0.000000e+000	0.000000e+000	0.000000e+000	0.000000e+000
144100000	0.000000e+000	0.000000e+000	-3.517099e-002	9.519949e-002	0.000000e+000	0.000000e+000	0.000000e+000	0.000000e+000
144200000	0.000000e+000	0.000000e+000	-3.409813e-002	9.414575e-002	0.000000e+000	0.000000e+000	0.000000e+000	0.000000e+000
144300000	0.000000e+000	0.000000e+000	-3.318075e-002	9.295385e-002	0.000000e+000	0.000000e+000	0.000000e+000	0.000000e+000
144400000	0.000000e+000	0.000000e+000	-3.190727e-002	9.194421e-002	0.000000e+000	0.000000e+000	0.000000e+000	0.000000e+000
144500000	0.000000e+000	0.000000e+000	-3.080509e-002	9.097407e-002	0.000000e+000	0.000000e+000	0.000000e+000	0.000000e+000
144600000	0.000000e+000	0.000000e+000	-3.003845e-002	8.981640e-002	0.000000e+000	0.000000e+000	0.000000e+000	0.000000e+000
144700000	0.000000e+000	0.000000e+000	-2.911686e-002	8.866257e-002	0.000000e+000	0.000000e+000	0.000000e+000	0.000000e+000
144800000	0.000000e+000	0.000000e+000	-2.807599e-002	8.751129e-002	0.000000e+000	0.000000e+000	0.000000e+000	0.000000e+000
144900000	0.000000e+000	0.000000e+000	-2.721516e-002	8.640068e-002	0.000000e+000	0.000000e+000	0.000000e+000	0.000000e+000
145000000	0.000000e+000	0.000000e+000	-2.626241e-002	8.528833e-002	0.000000e+000	0.000000e+000	0.000000e+000	0.000000e+000
145100000	0.000000e+000	0.000000e+000	-2.522003e-002	8.415195e-002	0.000000e+000	0.000000e+000	0.000000e+000	0.000000e+000
145200000	0.000000e+000	0.000000e+000	-2.445447e-002	8.301571e-002	0.000000e+000	0.000000e+000	0.000000e+000	0.000000e+000
145300000	0.000000e+000	0.000000e+000	-2.367039e-002	8.171073e-002	0.000000e+000	0.000000e+000	0.000000e+000	0.000000e+000
145400000	0.000000e+000	0.000000e+000	-2.275540e-002	8.073063e-002	0.000000e+000	0.000000e+000	0.000000e+000	0.000000e+000
145500000	0.000000e+000	0.000000e+000	-2.171988e-002	7.939929e-002	0.000000e+000	0.000000e+000	0.000000e+000	0.000000e+000
145600000	0.000000e+000	0.000000e+000	-2.120116e-002	7.833695e-002	0.000000e+000	0.000000e+000	0.000000e+000	0.000000e+000
145700000	0.000000e+000	0.000000e+000	-2.038685e-002	7.715102e-002	0.000000e+000	0.000000e+000	0.000000e+000	0.000000e+000
145800000	0.000000e+000	0.000000e+000	-1.955266e-002	7.585537e-002	0.000000e+000	0.000000e+000	0.000000e+000	0.000000e+000
145900000	0.000000e+000	0.000000e+000	-1.881841e-002	7.473873e-002	0.000000e+000	0.000000e+000	0.000000e+000	0.000000e+000
146000000	0.000000e+000	0.000000e+000	-1.807984e-002	7.351566e-002	0.000000e+000	0.000000e+000	0.000000e+000	0.000000e+000
146100000	0.000000e+000	0.000000e+000	-1.740225e-002	7.225388e-002	0.000000e+000	0.000000e+000	0.000000e+000	0.000000e+000
146200000	0.000000e+000	0.000000e+000	-1.676722e-002	7.111108e-002	0.000000e+000	0.000000e+000	0.000000e+000	0.000000e+000
146300000	0.000000e+000	0.000000e+000	-1.612378e-002	6.980505e-002	0.000000e+000	0.000000e+000	0.000000e+000	0.000000e+000
146400000	0.000000e+000	0.000000e+000	-1.529202e-002	6.849161e-002	0.000000e+000	0.000000e+000	0.000000e+000	0.000000e+000
146500000	0.000000e+000	0.000000e+000	-1.488497e-002	6.721852e-002	0.000000e+000	0.000000e+000	0.000000e+000	0.000000e+000
146600000	0.000000e+000	0.000000e+000	-1.423073e-002	6.611134e-002	0.000000e+000	0.000000e+000	0.000000e+000	0.000000e+000
146700000	0.000000e+000	0.000000e+000	-1.350946e-002	6.484808e-002	0.000000e+000	0.000000e+000	0.000000e+000	0.000000e+000
146800000	0.000000e+000	0.000000e+000	-1.297476e-002	6.350982e-002	0.000000e+000	0.000000e+000	0.000000e+000	0.000000e+000
146900000	0.000000e+000	0.000000e+000	-1.237987e-002	6.220086e-002	0.000000e+000	0.000000e+000	0.000000e+000	0.000000e+000
147000000	0.000000e+000	0.000000e+000	-1.203243e-002	6.100249e-002	0.000000e+000	0.000000e+000	0.000000e+000	0.000000e+000
147100000	0.000000e+000	0.000000e+000	-1.153188e-002	5.965440e-002	0.000000e+000	0.000000e+000	0.000000e+000	0.000000e+000
147200000	0.000000e+000	0.000000e+000	-1.091781e-002	5.836937e-002	0.000000e+000	0.000000e+000	0.000000e+000	0.000000e+000
147300000	0.000000e+000	0.000000e+000	-1.032894e-002	5.721598e-002	0.000000e+000	0.000000e+000	0.000000e+000	0.000000e+000
147400000	0.000000e+000	0.000000e+000	-9.969252e-003	5.579887e-002	0.000000e+000	0.000000e+000	0.000000e+000	0.000000e+000
147500000	0.000000e+000	0.000000e+000	-9.458013e-003	5.451598e-002	0.000000e+000	0.000000e+000	0.000000e+000	0.000000e+000
147600000	0.000000e+000	0.000000e+000	-9.277667e-003	5.319557e-002	0.000000e+000	0.000000e+000	0.000000e+000	0.000000e+000
147700000	0.000000e+000	0.000000e+000	-8.895041e-003	5.199327e-002	0.000000e+000	0.000000e+000	0.000000e+000	0.000000e+000
147800000	0.000000e+000	0.000000e+000	-8.399407e-003	5.057134e-002	0.000000e+000	0.000000e+000	0.000000e+000	0.000000e+000
147900000	0.000000e+000	0.000000e+000	-8.038819e-003	4.945684e-002	0.000000e+000	0.000000e+000	0.000000e+000	0.000000e+000
148000000	0.000000e+000	0.000000e+000	-7.670179e-003	4.808201e-002	0.000000e+000	0.000000e+000	0.000000e+000	0.000000e+000
148100000	0.000000e+000	0.000000e+000	-7.493818e-003	4.671124e-002	0.000000e+000	0.000000e+000	0.000000e+000	0.000000e+000
148200000	0.000000e+000	0.000000e+000	-7.175339e-003	4.517648e-002	0.000000e+000	0.000000e+000	0.000000e+000	0.000000e+000
148300000	0.000000e+000	0.000000e+000	-7.002203e-003	4.396274e-002	0.000000e+000	0.000000e+000	0.000000e+000	0.000000e+000
148400000	0.000000e+000	0.000000e+000	-6.690189e-003	4.274130e-002	0.000000e+000	0.000000e+000	0.000000e+000	0.000000e+000
148500000	0.000000e+000	0.000000e+000	-6.375279e-003	4.136792e-002	0.000000e+000	0.000000e+000	0.000000e+000	0.000000e+000
148600000	0.000000e+000	0.000000e+000	-6.346034e-003	4.010102e-002	0.000000e+000	0.000000e+000	0.000000e+000	0.000000e+000
148700000	0.000000e+000	0.000000e+000	-6.086724e-003	3.871162e-002	0.000000e+000	0.000000e+000	0.000000e+000	0.000000e+000
148800000	0.000000e+000	0.000000e+000	-5.968114e-003	3.743153e-002	0.000000e+000	0.000000e+000	0.000000e+000	0.000000e+000
148900000	0.000000e+000	0.000000e+000	-5.850973e-003	3.625561e-002	0.000000e+000	0.000000e+000	0.000000e+000	0.000000e+000
149000000	0.000000e+000	0.000000e+000	-5.731878e-003	3.488639e-002	0.000000e+000	0.000000e+000	0.000000e+000	0.000000e+000
149100000	0.000000e+000	0.000000e+000	-5.575705e-003	3.348864e-002	0.000000e+000	0.000000e+000	0.000000e+000	0.000000e+000
149200000	0.000000e+000	0.000000e+000	-5.581258e-003	3.220289e-002	0.000000e+000	0.000000e+000	0.000000e+000	0.000000e+000
149300000	0.000000e+000	0.000000e+000	-5.390722e-003	3.091601e-002	0.000000e+000	0.000000e+000	0.000000e+000	0.000000e+000
149400000	0.000000e+000	0.000000e+000	-5.493972e-003	2.943264e-002	0.000000e+000	0.000000e+000	0.000000e+000	0.000000e+000
149500000	0.000000e+000	0.000000e+000	-5.350038e-003	2.826034e-002	0.000000e+000	0.000000e+000	0.000000e+000	0.000000e+000
149600000	0.000000e+000	0.000000e+000	-5.438840e-003	2.687901e-002	0.000000e+000	0.000000e+000	0.000000e+000	0.000000e+000
149700000	0.000000e+000	0.000000e+000	-5.527527e-003	2.557825e-002	0.000000e+000	0.000000e+000	0.000000e+000	0.000000e+000
149800000	0.000000e+000	0.000000e+000	-5.458765e-003	2.427625e-002	0.000000e+000	0.000000e+000	0.000000e+000	0.000000e+000
149900000	0.000000e+000	0.000000e+000	-5.633292e-003	2.301549e-002	0.000000e+000	0.000000e+000	0.000000e+000	0.000000e+000
150000000	0.000000e+000	0.000000e+000	-5.658799e-003	2.171759e-002	0.000000e+000	0.000000e+000	0.000000e+000	0.000000e+000
150100000	0.000000e+000	0.000000e+000	-5.853821e-003	2.041271e-002	0.000000e+000	0.000000e+000	0.000000e+000	0.000000e+000
150200000	0.000000e+000	0.000000e+000	-5.923425e-003	1.894692e-002	0.000000e+000	0.000000e+000	0.000000e+000	0.000000e+000
150300000	0.000000e+000	0.000000e+000	-6.183706e-003	1.781409e-002	0.000000e+000	0.000000e+000	0.000000e+000	0.000000e+000
150400000	0.000000e+000	0.000000e+000	-6.195665e-003	1.656545e-002	0.000000e+000	0.000000e+000	0.000000e+000	0.000000e+000
150500000	0.000000e+000	0.000000e+000	-6.646967e-003	1.528136e-002	0.000000e+000	0.000000e+000	0.000000e+000	0.000000e+000
150600000	0.000000e+000	0.000000e+000	-6.734601e-003	1.385217e-002	0.000000e+000	0.000000e+000	0.000000e+000	0.000000e+000
150700000	0.000000e+000	0.000000e+000	-6.876127e-003	1.273345e-002	0.000000e+000	0.000000e+000	0.000000e+000	0.000000e+000
150800000	0.000000e+000	0.000000e+000	-7.300566e-003	1.136580e-002	0.000000e+000	0.000000e+000	0.000000e+000	0.000000e+000
150900000	0.000000e+000	0.000000e+000	-7.513350e-003	1.015322e-002	0.000000e+000	0.000000e+000	0.000000e+000	0.000000e+000
151000000	0.000000e+000	0.000000e+000	-7.696872e-003	8.826913e-003	0.000000e+000	0.000000e+000	0.000000e+000	0.000000e+000
151100000	0.000000e+000	0.000000e+000	-8.159271e-003	7.636814e-003	0.000000e+000	0.000000e+000	0.000000e+000	0.000000e+000
151200000	0.000000e+000	0.000000e+000	-8.425927e-003	6.177485e-003	0.000000e+000	0.000000e+000	0.000000e+000	0.000000e+000
151300000	0.000000e+000	0.000000e+000	-8.856213e-003	4.926537e-003	0.000000e+000	0.000000e+000	0.000000e+000	0.000000e+000
151400000	0.000000e+000	0.000000e+000	-9.193812e-003	3.743219e-003	0.000000e+000	0.000000e+000	0.000000e+000	0.000000e+000
151500000	0.000000e+000	0.000000e+000	-9.638500e-003	2.585651e-003	0.000000e+000	0.000000e+000	0.000000e+000	0.000000e+000
151600000	0.000000e+000	0.000000e+000	-1.009716e-002	1.301985e-003	0.000000e+000	0.000000e+000	0.000000e+000	0.000000e+000
151700000	0.000000e+000	0.000000e+000	-1.049307e-002	1.843976e-004	0.000000e+000	0.000000e+000	0.000000e+000	0.000000e+000
151800000	0.000000e+000	0.000000e+000	-1.106967e-002	-1.065269e-003	0.000000e+000	0.000000e+000	0.000000e+000	0.000000e+000
151900000	0.000000e+000	0.000000e+000	-1.151126e-002	-2.388711e-003	0.000000e+000	0.000000e+000	0.000000e+000	0.000000e+000
152000000	0.000000e+000	0.000000e+000	-1.189518e-002	-3.503498e-003	0.000000e+000	0.000000e+000	0.000000e+000	0.000000e+000
152100000	0.000000e+000	0.000000e+000	-1.234430e-002	-4.635127e-003	0.000000e+000	0.000000e+000	0.000000e+000	0.000000e+000
152200000	0.000000e+000	0.000000e+000	-1.301926e-002	-5.865716e-003	0.000000e+000	0.000000e+000	0.000000e+000	0.000000e+000
152300000	0.000000e+000	0.000000e+000	-1.345584e-002	-7.060117e-003	0.000000e+000	0.000000e+000	0.000000e+000	0.000000e+000
152400000	0.000000e+000	0.000000e+000	-1.412006e-002	-8.259344e-003	0.000000e+000	0.000000e+000	0.000000e+000	0.000000e+000
152500000	0.000000e+000	0.000000e+000	-1.477023e-002	-9.374900e-003	0.000000e+000	0.000000e+000	0.000000e+000	0.000000e+000
152600000	0.000000e+000	0.000000e+000	-1.542061e-002	-1.060922e-002	0.000000e+000	0.000000e+000	0.000000e+000	0.000000e+000
152700000	0.000000e+000	0.000000e+000	-1.607210e-002	-1.162119e-002	0.000000e+000	0.000000e+000	0.000000e+000	0.000000e+000
152800000	0.000000e+000	0.000000e+000	-1.662822e-002	-1.288763e-002	0.000000e+000	0.000000e+000	0.000000e+000	0.000000e+000
152900000	0.000000e+000	0.000000e+000	-1.713397e-002	-1.390273e-002	0.000000e+000	0.000000e+000	0.000000e+000	0.000000e+000
153000000	0.000000e+000	0.000000e+000	-1.805929e-002	-1.506193e-002	0.000000e+000	0.000000e+000	0.000000e+000	0.000000e+000
153100000	0.000000e+000	0.000000e+000	-1.871878e-002	-1.620631e-002	0.000000e+000	0.000000e+000	0.000000e+000	0.000000e+000
153200000	0.000000e+000	0.000000e+000	-1.949817e-002	-1.718116e-002	0.000000e+000	0.000000e+000	0.000000e+000	0.000000e+000
153300000	0.000000e+000	0.000000e+000	-2.005455e-002	-1.834369e-002	0.000000e+000	0.000000e+000	0.000000e+000	0.000000e+000
153400000	0.000000e+000	0.000000e+000	-2.095679e-002	-1.934313e-002	0.000000e+000	0.000000e+000	0.000000e+000	0.000000e+000
153500000	0.000000e+000	0.000000e+000	-2.188591e-002	-2.039991e-002	0.000000e+000	0.000000e+000	0.000000e+000	0.000000e+000
153600000	0.000000e+000	0.000000e+000	-2.264578e-002	-2.163259e-002	0.000000e+000	0.000000e+000	0.000000e+000	0.000000e+000
153700000	0.000000e+000	0.000000e+000	-2.344614e-002	-2.257577e-002	0.000000e+000	0.000000e+000	0.000000e+000	0.000000e+000
153800000	0.000000e+000	0.000000e+000	-2.427071e-002	-2.351723e-002	0.000000e+000	0.000000e+000	0.000000e+000	0.000000e+000
153900000	0.000000e+000	0.000000e+000	-2.497118e-002	-2.445696e-002	0.000000e+000	0.000000e+000	0.000000e+000	0.000000e+000
154000000	0.000000e+000	0.000000e+000	-2.603433e-002	-2.564832e-002	0.000000e+000	0.000000e+000	0.000000e+000	0.000000e+000
154100000	0.000000e+000	0.000000e+000	-2.701698e-002	-2.645808e-002	0.000000e+000	0.000000e+000	0.000000e+000	0.000000e+000
154200000	0.000000e+000	0.000000e+000	-2.787945e-002	-2.747235e-002	0.000000e+000	0.000000e+000	0.000000e+000	0.000000e+000
154300000	0.000000e+000	0.000000e+000	-2.872689e-002	-2.862702e-002	0.000000e+000	0.000000e+000	0.000000e+000	0.000000e+000
154400000	0.000000e+000	0.000000e+000	-2.966589e-002	-2.933839e-002	0.000000e+000	0.000000e+000	0.000000e+000	0.000000e+000
154500000	0.000000e+000	0.000000e+000	-3.072546e-002	-3.047674e-002	0.000000e+000	0.000000e+000	0.000000e+000	0.000000e+000
154600000	0.000000e+000	0.000000e+000	-3.160092e-002	-3.129012e-002	0.000000e+000	0.000000e+000	0.000000e+000	0.000000e+000
154700000	0.000000e+000	0.000000e+000	-3.267960e-002	-3.204020e-002	0.000000e+000	0.000000e+000	0.000000e+000	0.000000e+000
154800000	0.000000e+000	0.000000e+000	-3.355194e-002	-3.298871e-002	0.000000e+000	0.000000e+000	0.000000e+000	0.000000e+000
154900000	0.000000e+000	0.000000e+000	-3.461531e-002	-3.385353e-002	0.000000e+000	0.000000e+000	0.000000e+000	0.000000e+000
155000000	0.000000e+000	0.000000e+000	-3.573454e-002	-3.479655e-002	0.000000e+000	0.000000e+000	0.000000e+000	0.000000e+000
155100000	0.000000e+000	0.000000e+000	-3.660624e-002	-3.571379e-002	0.000000e+000	0.000000e+000	0.000000e+000	0.000000e+000
155200000	0.000000e+000	0.000000e+000	-3.784073e-002	-3.654501e-002	0.000000e+000	0.000000e+000	0.000000e+000	0.000000e+000
155300000	0.000000e+000	0.000000e+000	-3.896759e-002	-3.736706e-002	0.000000e+000	0.000000e+000	0.000000e+000	0.000000e+000
155400000	0.000000e+000	0.000000e+000	-4.016442e-002	-3.810369e-002	0.000000e+000	0.000000e+000	0.000000e+000	0.000000e+000
155500000	0.000000e+000	0.000000e+000	-4.123132e-002	-3.886977e-002	0.000000e+000	0.000000e+000	0.000000e+000	0.000000e+000
155600000	0.000000e+000	0.000000e+000	-4.232961e-002	-3.954168e-002	0.000000e+000	0.000000e+000	0.000000e+000	0.000000e+000
