!Agilent Technologies,E5072A,MY51200456,A.01.14
!Date: Tue Nov 19 12:30:40 2019
!Data & Calibration Information:
!Freq	S11:NONE(--)	S21:NONE(--)	S12:NONE(--)	S22:NONE(--)
!PortZ  Port1:50+j0    Port2:50+j0
!Above PortZ is port z conversion or system Z0 setting when saving the data.
!When reading, reference impedance value at option line is always used.
# Hz S RI R 50
140000000	0.000000e+000	0.000000e+000	-9.463409e-002	1.133429e-001	0.000000e+000	0.000000e+000	0.000000e+000	0.000000e+000
140100000	0.000000e+000	0.000000e+000	-9.314095e-002	1.128803e-001	0.000000e+000	0.000000e+000	0.000000e+000	0.000000e+000
140200000	0.000000e+000	0.000000e+000	-9.148653e-002	1.125591e-001	0.000000e+000	0.000000e+000	0.000000e+000	0.000000e+000
140300000	0.000000e+000	0.000000e+000	-8.990768e-002	1.119685e-001	0.000000e+000	0.000000e+000	0.000000e+000	0.000000e+000
140400000	0.000000e+000	0.000000e+000	-8.842751e-002	1.114762e-001	0.000000e+000	0.000000e+000	0.000000e+000	0.000000e+000
140500000	0.000000e+000	0.000000e+000	-8.685918e-002	1.110354e-001	0.000000e+000	0.000000e+000	0.000000e+000	0.000000e+000
140600000	0.000000e+000	0.000000e+000	-8.540284e-002	1.104503e-001	0.000000e+000	0.000000e+000	0.000000e+000	0.000000e+000
140700000	0.000000e+000	0.000000e+000	-8.383396e-002	1.099351e-001	0.000000e+000	0.000000e+000	0.000000e+000	0.000000e+000
140800000	0.000000e+000	0.000000e+000	-8.252506e-002	1.095537e-001	0.000000e+000	0.000000e+000	0.000000e+000	0.000000e+000
140900000	0.000000e+000	0.000000e+000	-8.097111e-002	1.087648e-001	0.000000e+000	0.000000e+000	0.000000e+000	0.000000e+000
141000000	0.000000e+000	0.000000e+000	-7.954177e-002	1.081129e-001	0.000000e+000	0.000000e+000	0.000000e+000	0.000000e+000
141100000	0.000000e+000	0.000000e+000	-7.806360e-002	1.076871e-001	0.000000e+000	0.000000e+000	0.000000e+000	0.000000e+000
141200000	0.000000e+000	0.000000e+000	-7.666127e-002	1.071751e-001	0.000000e+000	0.000000e+000	0.000000e+000	0.000000e+000
141300000	0.000000e+000	0.000000e+000	-7.515912e-002	1.064144e-001	0.000000e+000	0.000000e+000	0.000000e+000	0.000000e+000
141400000	0.000000e+000	0.000000e+000	-7.374929e-002	1.057695e-001	0.000000e+000	0.000000e+000	0.000000e+000	0.000000e+000
141500000	0.000000e+000	0.000000e+000	-7.228573e-002	1.051112e-001	0.000000e+000	0.000000e+000	0.000000e+000	0.000000e+000
141600000	0.000000e+000	0.000000e+000	-7.108273e-002	1.045072e-001	0.000000e+000	0.000000e+000	0.000000e+000	0.000000e+000
141700000	0.000000e+000	0.000000e+000	-6.955584e-002	1.038344e-001	0.000000e+000	0.000000e+000	0.000000e+000	0.000000e+000
141800000	0.000000e+000	0.000000e+000	-6.832180e-002	1.031364e-001	0.000000e+000	0.000000e+000	0.000000e+000	0.000000e+000
141900000	0.000000e+000	0.000000e+000	-6.693861e-002	1.023315e-001	0.000000e+000	0.000000e+000	0.000000e+000	0.000000e+000
142000000	0.000000e+000	0.000000e+000	-6.573230e-002	1.016263e-001	0.000000e+000	0.000000e+000	0.000000e+000	0.000000e+000
142100000	0.000000e+000	0.000000e+000	-6.434313e-002	1.008525e-001	0.000000e+000	0.000000e+000	0.000000e+000	0.000000e+000
142200000	0.000000e+000	0.000000e+000	-6.301232e-002	1.001735e-001	0.000000e+000	0.000000e+000	0.000000e+000	0.000000e+000
142300000	0.000000e+000	0.000000e+000	-6.167569e-002	9.935969e-002	0.000000e+000	0.000000e+000	0.000000e+000	0.000000e+000
142400000	0.000000e+000	0.000000e+000	-6.040722e-002	9.862242e-002	0.000000e+000	0.000000e+000	0.000000e+000	0.000000e+000
142500000	0.000000e+000	0.000000e+000	-5.918403e-002	9.782643e-002	0.000000e+000	0.000000e+000	0.000000e+000	0.000000e+000
142600000	0.000000e+000	0.000000e+000	-5.807203e-002	9.693796e-002	0.000000e+000	0.000000e+000	0.000000e+000	0.000000e+000
142700000	0.000000e+000	0.000000e+000	-5.689185e-002	9.609062e-002	0.000000e+000	0.000000e+000	0.000000e+000	0.000000e+000
142800000	0.000000e+000	0.000000e+000	-5.573850e-002	9.544678e-002	0.000000e+000	0.000000e+000	0.000000e+000	0.000000e+000
142900000	0.000000e+000	0.000000e+000	-5.449737e-002	9.455993e-002	0.000000e+000	0.000000e+000	0.000000e+000	0.000000e+000
143000000	0.000000e+000	0.000000e+000	-5.327823e-002	9.361979e-002	0.000000e+000	0.000000e+000	0.000000e+000	0.000000e+000
143100000	0.000000e+000	0.000000e+000	-5.200760e-002	9.270161e-002	0.000000e+000	0.000000e+000	0.000000e+000	0.000000e+000
143200000	0.000000e+000	0.000000e+000	-5.100560e-002	9.180293e-002	0.000000e+000	0.000000e+000	0.000000e+000	0.000000e+000
143300000	0.000000e+000	0.000000e+000	-4.978882e-002	9.093688e-002	0.000000e+000	0.000000e+000	0.000000e+000	0.000000e+000
143400000	0.000000e+000	0.000000e+000	-4.870414e-002	9.010888e-002	0.000000e+000	0.000000e+000	0.000000e+000	0.000000e+000
143500000	0.000000e+000	0.000000e+000	-4.773147e-002	8.908367e-002	0.000000e+000	0.000000e+000	0.000000e+000	0.000000e+000
143600000	0.000000e+000	0.000000e+000	-4.658309e-002	8.808104e-002	0.000000e+000	0.000000e+000	0.000000e+000	0.000000e+000
143700000	0.000000e+000	0.000000e+000	-4.554262e-002	8.718481e-002	0.000000e+000	0.000000e+000	0.000000e+000	0.000000e+000
143800000	0.000000e+000	0.000000e+000	-4.436020e-002	8.644072e-002	0.000000e+000	0.000000e+000	0.000000e+000	0.000000e+000
143900000	0.000000e+000	0.000000e+000	-4.348009e-002	8.542693e-002	0.000000e+000	0.000000e+000	0.000000e+000	0.000000e+000
144000000	0.000000e+000	0.000000e+000	-4.249881e-002	8.427401e-002	0.000000e+000	0.000000e+000	0.000000e+000	0.000000e+000
144100000	0.000000e+000	0.000000e+000	-4.144290e-002	8.327977e-002	0.000000e+000	0.000000e+000	0.000000e+000	0.000000e+000
144200000	0.000000e+000	0.000000e+000	-4.041563e-002	8.249921e-002	0.000000e+000	0.000000e+000	0.000000e+000	0.000000e+000
144300000	0.000000e+000	0.000000e+000	-3.974565e-002	8.126067e-002	0.000000e+000	0.000000e+000	0.000000e+000	0.000000e+000
144400000	0.000000e+000	0.000000e+000	-3.879150e-002	8.025449e-002	0.000000e+000	0.000000e+000	0.000000e+000	0.000000e+000
144500000	0.000000e+000	0.000000e+000	-3.785710e-002	7.920761e-002	0.000000e+000	0.000000e+000	0.000000e+000	0.000000e+000
144600000	0.000000e+000	0.000000e+000	-3.680040e-002	7.811722e-002	0.000000e+000	0.000000e+000	0.000000e+000	0.000000e+000
144700000	0.000000e+000	0.000000e+000	-3.602126e-002	7.722656e-002	0.000000e+000	0.000000e+000	0.000000e+000	0.000000e+000
144800000	0.000000e+000	0.000000e+000	-3.509830e-002	7.617839e-002	0.000000e+000	0.000000e+000	0.000000e+000	0.000000e+000
144900000	0.000000e+000	0.000000e+000	-3.433257e-002	7.508018e-002	0.000000e+000	0.000000e+000	0.000000e+000	0.000000e+000
145000000	0.000000e+000	0.000000e+000	-3.350541e-002	7.411281e-002	0.000000e+000	0.000000e+000	0.000000e+000	0.000000e+000
145100000	0.000000e+000	0.000000e+000	-3.270470e-002	7.293097e-002	0.000000e+000	0.000000e+000	0.000000e+000	0.000000e+000
145200000	0.000000e+000	0.000000e+000	-3.187439e-002	7.189665e-002	0.000000e+000	0.000000e+000	0.000000e+000	0.000000e+000
145300000	0.000000e+000	0.000000e+000	-3.104953e-002	7.092005e-002	0.000000e+000	0.000000e+000	0.000000e+000	0.000000e+000
145400000	0.000000e+000	0.000000e+000	-3.032148e-002	6.972398e-002	0.000000e+000	0.000000e+000	0.000000e+000	0.000000e+000
145500000	0.000000e+000	0.000000e+000	-2.966106e-002	6.851418e-002	0.000000e+000	0.000000e+000	0.000000e+000	0.000000e+000
145600000	0.000000e+000	0.000000e+000	-2.910869e-002	6.749992e-002	0.000000e+000	0.000000e+000	0.000000e+000	0.000000e+000
145700000	0.000000e+000	0.000000e+000	-2.821130e-002	6.645968e-002	0.000000e+000	0.000000e+000	0.000000e+000	0.000000e+000
145800000	0.000000e+000	0.000000e+000	-2.755193e-002	6.515119e-002	0.000000e+000	0.000000e+000	0.000000e+000	0.000000e+000
145900000	0.000000e+000	0.000000e+000	-2.692569e-002	6.392840e-002	0.000000e+000	0.000000e+000	0.000000e+000	0.000000e+000
146000000	0.000000e+000	0.000000e+000	-2.629671e-002	6.293556e-002	0.000000e+000	0.000000e+000	0.000000e+000	0.000000e+000
146100000	0.000000e+000	0.000000e+000	-2.580922e-002	6.189446e-002	0.000000e+000	0.000000e+000	0.000000e+000	0.000000e+000
146200000	0.000000e+000	0.000000e+000	-2.494960e-002	6.051893e-002	0.000000e+000	0.000000e+000	0.000000e+000	0.000000e+000
146300000	0.000000e+000	0.000000e+000	-2.449937e-002	5.941389e-002	0.000000e+000	0.000000e+000	0.000000e+000	0.000000e+000
146400000	0.000000e+000	0.000000e+000	-2.374510e-002	5.823887e-002	0.000000e+000	0.000000e+000	0.000000e+000	0.000000e+000
146500000	0.000000e+000	0.000000e+000	-2.334112e-002	5.718545e-002	0.000000e+000	0.000000e+000	0.000000e+000	0.000000e+000
146600000	0.000000e+000	0.000000e+000	-2.287716e-002	5.583043e-002	0.000000e+000	0.000000e+000	0.000000e+000	0.000000e+000
146700000	0.000000e+000	0.000000e+000	-2.238427e-002	5.486389e-002	0.000000e+000	0.000000e+000	0.000000e+000	0.000000e+000
146800000	0.000000e+000	0.000000e+000	-2.188570e-002	5.377011e-002	0.000000e+000	0.000000e+000	0.000000e+000	0.000000e+000
146900000	0.000000e+000	0.000000e+000	-2.143155e-002	5.258417e-002	0.000000e+000	0.000000e+000	0.000000e+000	0.000000e+000
147000000	0.000000e+000	0.000000e+000	-2.102990e-002	5.143252e-002	0.000000e+000	0.000000e+000	0.000000e+000	0.000000e+000
147100000	0.000000e+000	0.000000e+000	-2.058448e-002	5.020448e-002	0.000000e+000	0.000000e+000	0.000000e+000	0.000000e+000
147200000	0.000000e+000	0.000000e+000	-2.010412e-002	4.875746e-002	0.000000e+000	0.000000e+000	0.000000e+000	0.000000e+000
147300000	0.000000e+000	0.000000e+000	-1.979595e-002	4.747579e-002	0.000000e+000	0.000000e+000	0.000000e+000	0.000000e+000
147400000	0.000000e+000	0.000000e+000	-1.928002e-002	4.666169e-002	0.000000e+000	0.000000e+000	0.000000e+000	0.000000e+000
147500000	0.000000e+000	0.000000e+000	-1.903698e-002	4.519244e-002	0.000000e+000	0.000000e+000	0.000000e+000	0.000000e+000
147600000	0.000000e+000	0.000000e+000	-1.882031e-002	4.405740e-002	0.000000e+000	0.000000e+000	0.000000e+000	0.000000e+000
147700000	0.000000e+000	0.000000e+000	-1.848554e-002	4.291075e-002	0.000000e+000	0.000000e+000	0.000000e+000	0.000000e+000
147800000	0.000000e+000	0.000000e+000	-1.817560e-002	4.180040e-002	0.000000e+000	0.000000e+000	0.000000e+000	0.000000e+000
147900000	0.000000e+000	0.000000e+000	-1.777115e-002	4.051791e-002	0.000000e+000	0.000000e+000	0.000000e+000	0.000000e+000
148000000	0.000000e+000	0.000000e+000	-1.741551e-002	3.917778e-002	0.000000e+000	0.000000e+000	0.000000e+000	0.000000e+000
148100000	0.000000e+000	0.000000e+000	-1.729403e-002	3.795946e-002	0.000000e+000	0.000000e+000	0.000000e+000	0.000000e+000
148200000	0.000000e+000	0.000000e+000	-1.713340e-002	3.676110e-002	0.000000e+000	0.000000e+000	0.000000e+000	0.000000e+000
148300000	0.000000e+000	0.000000e+000	-1.684697e-002	3.555854e-002	0.000000e+000	0.000000e+000	0.000000e+000	0.000000e+000
148400000	0.000000e+000	0.000000e+000	-1.687796e-002	3.436676e-002	0.000000e+000	0.000000e+000	0.000000e+000	0.000000e+000
148500000	0.000000e+000	0.000000e+000	-1.655070e-002	3.322799e-002	0.000000e+000	0.000000e+000	0.000000e+000	0.000000e+000
148600000	0.000000e+000	0.000000e+000	-1.637429e-002	3.192071e-002	0.000000e+000	0.000000e+000	0.000000e+000	0.000000e+000
148700000	0.000000e+000	0.000000e+000	-1.634738e-002	3.064875e-002	0.000000e+000	0.000000e+000	0.000000e+000	0.000000e+000
148800000	0.000000e+000	0.000000e+000	-1.627001e-002	2.950011e-002	0.000000e+000	0.000000e+000	0.000000e+000	0.000000e+000
148900000	0.000000e+000	0.000000e+000	-1.630458e-002	2.835801e-002	0.000000e+000	0.000000e+000	0.000000e+000	0.000000e+000
149000000	0.000000e+000	0.000000e+000	-1.608109e-002	2.696731e-002	0.000000e+000	0.000000e+000	0.000000e+000	0.000000e+000
149100000	0.000000e+000	0.000000e+000	-1.620102e-002	2.573724e-002	0.000000e+000	0.000000e+000	0.000000e+000	0.000000e+000
149200000	0.000000e+000	0.000000e+000	-1.620566e-002	2.445606e-002	0.000000e+000	0.000000e+000	0.000000e+000	0.000000e+000
149300000	0.000000e+000	0.000000e+000	-1.622914e-002	2.342680e-002	0.000000e+000	0.000000e+000	0.000000e+000	0.000000e+000
149400000	0.000000e+000	0.000000e+000	-1.619614e-002	2.205376e-002	0.000000e+000	0.000000e+000	0.000000e+000	0.000000e+000
149500000	0.000000e+000	0.000000e+000	-1.610221e-002	2.087916e-002	0.000000e+000	0.000000e+000	0.000000e+000	0.000000e+000
149600000	0.000000e+000	0.000000e+000	-1.636749e-002	1.990938e-002	0.000000e+000	0.000000e+000	0.000000e+000	0.000000e+000
149700000	0.000000e+000	0.000000e+000	-1.630822e-002	1.848093e-002	0.000000e+000	0.000000e+000	0.000000e+000	0.000000e+000
149800000	0.000000e+000	0.000000e+000	-1.647703e-002	1.744394e-002	0.000000e+000	0.000000e+000	0.000000e+000	0.000000e+000
149900000	0.000000e+000	0.000000e+000	-1.649428e-002	1.599123e-002	0.000000e+000	0.000000e+000	0.000000e+000	0.000000e+000
150000000	0.000000e+000	0.000000e+000	-1.684393e-002	1.505368e-002	0.000000e+000	0.000000e+000	0.000000e+000	0.000000e+000
150100000	0.000000e+000	0.000000e+000	-1.686493e-002	1.370572e-002	0.000000e+000	0.000000e+000	0.000000e+000	0.000000e+000
150200000	0.000000e+000	0.000000e+000	-1.708257e-002	1.258796e-002	0.000000e+000	0.000000e+000	0.000000e+000	0.000000e+000
150300000	0.000000e+000	0.000000e+000	-1.746588e-002	1.150110e-002	0.000000e+000	0.000000e+000	0.000000e+000	0.000000e+000
150400000	0.000000e+000	0.000000e+000	-1.775843e-002	1.020719e-002	0.000000e+000	0.000000e+000	0.000000e+000	0.000000e+000
150500000	0.000000e+000	0.000000e+000	-1.787860e-002	8.956235e-003	0.000000e+000	0.000000e+000	0.000000e+000	0.000000e+000
150600000	0.000000e+000	0.000000e+000	-1.805788e-002	7.902497e-003	0.000000e+000	0.000000e+000	0.000000e+000	0.000000e+000
150700000	0.000000e+000	0.000000e+000	-1.837475e-002	6.575520e-003	0.000000e+000	0.000000e+000	0.000000e+000	0.000000e+000
150800000	0.000000e+000	0.000000e+000	-1.873263e-002	5.571559e-003	0.000000e+000	0.000000e+000	0.000000e+000	0.000000e+000
150900000	0.000000e+000	0.000000e+000	-1.891885e-002	4.505897e-003	0.000000e+000	0.000000e+000	0.000000e+000	0.000000e+000
151000000	0.000000e+000	0.000000e+000	-1.944636e-002	3.265392e-003	0.000000e+000	0.000000e+000	0.000000e+000	0.000000e+000
151100000	0.000000e+000	0.000000e+000	-1.974786e-002	2.001085e-003	0.000000e+000	0.000000e+000	0.000000e+000	0.000000e+000
151200000	0.000000e+000	0.000000e+000	-2.028954e-002	8.517451e-004	0.000000e+000	0.000000e+000	0.000000e+000	0.000000e+000
151300000	0.000000e+000	0.000000e+000	-2.049312e-002	-2.893841e-004	0.000000e+000	0.000000e+000	0.000000e+000	0.000000e+000
151400000	0.000000e+000	0.000000e+000	-2.106226e-002	-1.410264e-003	0.000000e+000	0.000000e+000	0.000000e+000	0.000000e+000
151500000	0.000000e+000	0.000000e+000	-2.138631e-002	-2.470483e-003	0.000000e+000	0.000000e+000	0.000000e+000	0.000000e+000
151600000	0.000000e+000	0.000000e+000	-2.178525e-002	-3.613539e-003	0.000000e+000	0.000000e+000	0.000000e+000	0.000000e+000
151700000	0.000000e+000	0.000000e+000	-2.232502e-002	-4.660762e-003	0.000000e+000	0.000000e+000	0.000000e+000	0.000000e+000
151800000	0.000000e+000	0.000000e+000	-2.280211e-002	-5.963386e-003	0.000000e+000	0.000000e+000	0.000000e+000	0.000000e+000
151900000	0.000000e+000	0.000000e+000	-2.330274e-002	-7.016354e-003	0.000000e+000	0.000000e+000	0.000000e+000	0.000000e+000
152000000	0.000000e+000	0.000000e+000	-2.394490e-002	-7.976792e-003	0.000000e+000	0.000000e+000	0.000000e+000	0.000000e+000
152100000	0.000000e+000	0.000000e+000	-2.454839e-002	-9.077976e-003	0.000000e+000	0.000000e+000	0.000000e+000	0.000000e+000
152200000	0.000000e+000	0.000000e+000	-2.484265e-002	-1.022478e-002	0.000000e+000	0.000000e+000	0.000000e+000	0.000000e+000
152300000	0.000000e+000	0.000000e+000	-2.562942e-002	-1.127144e-002	0.000000e+000	0.000000e+000	0.000000e+000	0.000000e+000
152400000	0.000000e+000	0.000000e+000	-2.609555e-002	-1.226944e-002	0.000000e+000	0.000000e+000	0.000000e+000	0.000000e+000
152500000	0.000000e+000	0.000000e+000	-2.688392e-002	-1.328930e-002	0.000000e+000	0.000000e+000	0.000000e+000	0.000000e+000
152600000	0.000000e+000	0.000000e+000	-2.752146e-002	-1.440637e-002	0.000000e+000	0.000000e+000	0.000000e+000	0.000000e+000
152700000	0.000000e+000	0.000000e+000	-2.827329e-002	-1.532097e-002	0.000000e+000	0.000000e+000	0.000000e+000	0.000000e+000
152800000	0.000000e+000	0.000000e+000	-2.882408e-002	-1.640239e-002	0.000000e+000	0.000000e+000	0.000000e+000	0.000000e+000
152900000	0.000000e+000	0.000000e+000	-2.946124e-002	-1.737111e-002	0.000000e+000	0.000000e+000	0.000000e+000	0.000000e+000
153000000	0.000000e+000	0.000000e+000	-3.034898e-002	-1.856134e-002	0.000000e+000	0.000000e+000	0.000000e+000	0.000000e+000
153100000	0.000000e+000	0.000000e+000	-3.106252e-002	-1.955081e-002	0.000000e+000	0.000000e+000	0.000000e+000	0.000000e+000
153200000	0.000000e+000	0.000000e+000	-3.168254e-002	-2.028893e-002	0.000000e+000	0.000000e+000	0.000000e+000	0.000000e+000
153300000	0.000000e+000	0.000000e+000	-3.252439e-002	-2.150194e-002	0.000000e+000	0.000000e+000	0.000000e+000	0.000000e+000
153400000	0.000000e+000	0.000000e+000	-3.327769e-002	-2.223235e-002	0.000000e+000	0.000000e+000	0.000000e+000	0.000000e+000
153500000	0.000000e+000	0.000000e+000	-3.410609e-002	-2.328199e-002	0.000000e+000	0.000000e+000	0.000000e+000	0.000000e+000
153600000	0.000000e+000	0.000000e+000	-3.494395e-002	-2.416656e-002	0.000000e+000	0.000000e+000	0.000000e+000	0.000000e+000
153700000	0.000000e+000	0.000000e+000	-3.567060e-002	-2.518227e-002	0.000000e+000	0.000000e+000	0.000000e+000	0.000000e+000
153800000	0.000000e+000	0.000000e+000	-3.673022e-002	-2.600724e-002	0.000000e+000	0.000000e+000	0.000000e+000	0.000000e+000
153900000	0.000000e+000	0.000000e+000	-3.756633e-002	-2.684844e-002	0.000000e+000	0.000000e+000	0.000000e+000	0.000000e+000
154000000	0.000000e+000	0.000000e+000	-3.863212e-002	-2.779548e-002	0.000000e+000	0.000000e+000	0.000000e+000	0.000000e+000
154100000	0.000000e+000	0.000000e+000	-3.926209e-002	-2.863183e-002	0.000000e+000	0.000000e+000	0.000000e+000	0.000000e+000
154200000	0.000000e+000	0.000000e+000	-4.050721e-002	-2.951671e-002	0.000000e+000	0.000000e+000	0.000000e+000	0.000000e+000
154300000	0.000000e+000	0.000000e+000	-4.111913e-002	-3.031286e-002	0.000000e+000	0.000000e+000	0.000000e+000	0.000000e+000
154400000	0.000000e+000	0.000000e+000	-4.196861e-002	-3.114038e-002	0.000000e+000	0.000000e+000	0.000000e+000	0.000000e+000
154500000	0.000000e+000	0.000000e+000	-4.270466e-002	-3.190968e-002	0.000000e+000	0.000000e+000	0.000000e+000	0.000000e+000
154600000	0.000000e+000	0.000000e+000	-4.417466e-002	-3.286687e-002	0.000000e+000	0.000000e+000	0.000000e+000	0.000000e+000
154700000	0.000000e+000	0.000000e+000	-4.498969e-002	-3.361858e-002	0.000000e+000	0.000000e+000	0.000000e+000	0.000000e+000
154800000	0.000000e+000	0.000000e+000	-4.601394e-002	-3.414642e-002	0.000000e+000	0.000000e+000	0.000000e+000	0.000000e+000
154900000	0.000000e+000	0.000000e+000	-4.716194e-002	-3.526918e-002	0.000000e+000	0.000000e+000	0.000000e+000	0.000000e+000
155000000	0.000000e+000	0.000000e+000	-4.816780e-002	-3.586845e-002	0.000000e+000	0.000000e+000	0.000000e+000	0.000000e+000
155100000	0.000000e+000	0.000000e+000	-4.931139e-002	-3.673845e-002	0.000000e+000	0.000000e+000	0.000000e+000	0.000000e+000
155200000	0.000000e+000	0.000000e+000	-5.033478e-002	-3.737065e-002	0.000000e+000	0.000000e+000	0.000000e+000	0.000000e+000
155300000	0.000000e+000	0.000000e+000	-5.149629e-002	-3.811197e-002	0.000000e+000	0.000000e+000	0.000000e+000	0.000000e+000
155400000	0.000000e+000	0.000000e+000	-5.250270e-002	-3.870846e-002	0.000000e+000	0.000000e+000	0.000000e+000	0.000000e+000
155500000	0.000000e+000	0.000000e+000	-5.357848e-002	-3.939587e-002	0.000000e+000	0.000000e+000	0.000000e+000	0.000000e+000
155600000	0.000000e+000	0.000000e+000	-5.467314e-002	-4.006222e-002	0.000000e+000	0.000000e+000	0.000000e+000	0.000000e+000
