!Agilent Technologies,E5072A,MY51200456,A.01.14
!Date: Tue Nov 19 12:32:01 2019
!Data & Calibration Information:
!Freq	S11:NONE(--)	S21:NONE(--)	S12:NONE(--)	S22:NONE(--)
!PortZ  Port1:50+j0    Port2:50+j0
!Above PortZ is port z conversion or system Z0 setting when saving the data.
!When reading, reference impedance value at option line is always used.
# Hz S RI R 50
140000000	0.000000e+000	0.000000e+000	-9.507936e-002	7.608840e-002	0.000000e+000	0.000000e+000	0.000000e+000	0.000000e+000
140100000	0.000000e+000	0.000000e+000	-9.386074e-002	7.570325e-002	0.000000e+000	0.000000e+000	0.000000e+000	0.000000e+000
140200000	0.000000e+000	0.000000e+000	-9.270890e-002	7.542420e-002	0.000000e+000	0.000000e+000	0.000000e+000	0.000000e+000
140300000	0.000000e+000	0.000000e+000	-9.130532e-002	7.496125e-002	0.000000e+000	0.000000e+000	0.000000e+000	0.000000e+000
140400000	0.000000e+000	0.000000e+000	-9.003889e-002	7.445436e-002	0.000000e+000	0.000000e+000	0.000000e+000	0.000000e+000
140500000	0.000000e+000	0.000000e+000	-8.896943e-002	7.405492e-002	0.000000e+000	0.000000e+000	0.000000e+000	0.000000e+000
140600000	0.000000e+000	0.000000e+000	-8.775909e-002	7.365811e-002	0.000000e+000	0.000000e+000	0.000000e+000	0.000000e+000
140700000	0.000000e+000	0.000000e+000	-8.654724e-002	7.308046e-002	0.000000e+000	0.000000e+000	0.000000e+000	0.000000e+000
140800000	0.000000e+000	0.000000e+000	-8.531298e-002	7.263119e-002	0.000000e+000	0.000000e+000	0.000000e+000	0.000000e+000
140900000	0.000000e+000	0.000000e+000	-8.420945e-002	7.210140e-002	0.000000e+000	0.000000e+000	0.000000e+000	0.000000e+000
141000000	0.000000e+000	0.000000e+000	-8.312691e-002	7.149906e-002	0.000000e+000	0.000000e+000	0.000000e+000	0.000000e+000
141100000	0.000000e+000	0.000000e+000	-8.207160e-002	7.097981e-002	0.000000e+000	0.000000e+000	0.000000e+000	0.000000e+000
141200000	0.000000e+000	0.000000e+000	-8.091003e-002	7.028785e-002	0.000000e+000	0.000000e+000	0.000000e+000	0.000000e+000
141300000	0.000000e+000	0.000000e+000	-7.972111e-002	6.997983e-002	0.000000e+000	0.000000e+000	0.000000e+000	0.000000e+000
141400000	0.000000e+000	0.000000e+000	-7.871001e-002	6.917473e-002	0.000000e+000	0.000000e+000	0.000000e+000	0.000000e+000
141500000	0.000000e+000	0.000000e+000	-7.758590e-002	6.859901e-002	0.000000e+000	0.000000e+000	0.000000e+000	0.000000e+000
141600000	0.000000e+000	0.000000e+000	-7.674153e-002	6.791644e-002	0.000000e+000	0.000000e+000	0.000000e+000	0.000000e+000
141700000	0.000000e+000	0.000000e+000	-7.543979e-002	6.747441e-002	0.000000e+000	0.000000e+000	0.000000e+000	0.000000e+000
141800000	0.000000e+000	0.000000e+000	-7.450330e-002	6.681525e-002	0.000000e+000	0.000000e+000	0.000000e+000	0.000000e+000
141900000	0.000000e+000	0.000000e+000	-7.346761e-002	6.627492e-002	0.000000e+000	0.000000e+000	0.000000e+000	0.000000e+000
142000000	0.000000e+000	0.000000e+000	-7.251025e-002	6.545421e-002	0.000000e+000	0.000000e+000	0.000000e+000	0.000000e+000
142100000	0.000000e+000	0.000000e+000	-7.141775e-002	6.482717e-002	0.000000e+000	0.000000e+000	0.000000e+000	0.000000e+000
142200000	0.000000e+000	0.000000e+000	-7.054707e-002	6.424313e-002	0.000000e+000	0.000000e+000	0.000000e+000	0.000000e+000
142300000	0.000000e+000	0.000000e+000	-6.948405e-002	6.355860e-002	0.000000e+000	0.000000e+000	0.000000e+000	0.000000e+000
142400000	0.000000e+000	0.000000e+000	-6.850441e-002	6.291208e-002	0.000000e+000	0.000000e+000	0.000000e+000	0.000000e+000
142500000	0.000000e+000	0.000000e+000	-6.752598e-002	6.204076e-002	0.000000e+000	0.000000e+000	0.000000e+000	0.000000e+000
142600000	0.000000e+000	0.000000e+000	-6.675387e-002	6.130230e-002	0.000000e+000	0.000000e+000	0.000000e+000	0.000000e+000
142700000	0.000000e+000	0.000000e+000	-6.570503e-002	6.090690e-002	0.000000e+000	0.000000e+000	0.000000e+000	0.000000e+000
142800000	0.000000e+000	0.000000e+000	-6.506178e-002	5.991800e-002	0.000000e+000	0.000000e+000	0.000000e+000	0.000000e+000
142900000	0.000000e+000	0.000000e+000	-6.412773e-002	5.909357e-002	0.000000e+000	0.000000e+000	0.000000e+000	0.000000e+000
143000000	0.000000e+000	0.000000e+000	-6.311427e-002	5.834751e-002	0.000000e+000	0.000000e+000	0.000000e+000	0.000000e+000
143100000	0.000000e+000	0.000000e+000	-6.233653e-002	5.763213e-002	0.000000e+000	0.000000e+000	0.000000e+000	0.000000e+000
143200000	0.000000e+000	0.000000e+000	-6.143576e-002	5.679339e-002	0.000000e+000	0.000000e+000	0.000000e+000	0.000000e+000
143300000	0.000000e+000	0.000000e+000	-6.075297e-002	5.614006e-002	0.000000e+000	0.000000e+000	0.000000e+000	0.000000e+000
143400000	0.000000e+000	0.000000e+000	-5.992779e-002	5.522697e-002	0.000000e+000	0.000000e+000	0.000000e+000	0.000000e+000
143500000	0.000000e+000	0.000000e+000	-5.927562e-002	5.457264e-002	0.000000e+000	0.000000e+000	0.000000e+000	0.000000e+000
143600000	0.000000e+000	0.000000e+000	-5.837583e-002	5.367752e-002	0.000000e+000	0.000000e+000	0.000000e+000	0.000000e+000
143700000	0.000000e+000	0.000000e+000	-5.759784e-002	5.290468e-002	0.000000e+000	0.000000e+000	0.000000e+000	0.000000e+000
143800000	0.000000e+000	0.000000e+000	-5.691364e-002	5.200352e-002	0.000000e+000	0.000000e+000	0.000000e+000	0.000000e+000
143900000	0.000000e+000	0.000000e+000	-5.633442e-002	5.115097e-002	0.000000e+000	0.000000e+000	0.000000e+000	0.000000e+000
144000000	0.000000e+000	0.000000e+000	-5.551290e-002	5.035380e-002	0.000000e+000	0.000000e+000	0.000000e+000	0.000000e+000
144100000	0.000000e+000	0.000000e+000	-5.475956e-002	4.946161e-002	0.000000e+000	0.000000e+000	0.000000e+000	0.000000e+000
144200000	0.000000e+000	0.000000e+000	-5.400890e-002	4.872294e-002	0.000000e+000	0.000000e+000	0.000000e+000	0.000000e+000
144300000	0.000000e+000	0.000000e+000	-5.346773e-002	4.784921e-002	0.000000e+000	0.000000e+000	0.000000e+000	0.000000e+000
144400000	0.000000e+000	0.000000e+000	-5.284454e-002	4.689798e-002	0.000000e+000	0.000000e+000	0.000000e+000	0.000000e+000
144500000	0.000000e+000	0.000000e+000	-5.200445e-002	4.589663e-002	0.000000e+000	0.000000e+000	0.000000e+000	0.000000e+000
144600000	0.000000e+000	0.000000e+000	-5.152746e-002	4.493833e-002	0.000000e+000	0.000000e+000	0.000000e+000	0.000000e+000
144700000	0.000000e+000	0.000000e+000	-5.102346e-002	4.419165e-002	0.000000e+000	0.000000e+000	0.000000e+000	0.000000e+000
144800000	0.000000e+000	0.000000e+000	-5.038990e-002	4.345193e-002	0.000000e+000	0.000000e+000	0.000000e+000	0.000000e+000
144900000	0.000000e+000	0.000000e+000	-4.990472e-002	4.246456e-002	0.000000e+000	0.000000e+000	0.000000e+000	0.000000e+000
145000000	0.000000e+000	0.000000e+000	-4.934774e-002	4.148636e-002	0.000000e+000	0.000000e+000	0.000000e+000	0.000000e+000
145100000	0.000000e+000	0.000000e+000	-4.876792e-002	4.060948e-002	0.000000e+000	0.000000e+000	0.000000e+000	0.000000e+000
145200000	0.000000e+000	0.000000e+000	-4.829508e-002	3.975502e-002	0.000000e+000	0.000000e+000	0.000000e+000	0.000000e+000
145300000	0.000000e+000	0.000000e+000	-4.780117e-002	3.884332e-002	0.000000e+000	0.000000e+000	0.000000e+000	0.000000e+000
145400000	0.000000e+000	0.000000e+000	-4.720682e-002	3.777786e-002	0.000000e+000	0.000000e+000	0.000000e+000	0.000000e+000
145500000	0.000000e+000	0.000000e+000	-4.686252e-002	3.669165e-002	0.000000e+000	0.000000e+000	0.000000e+000	0.000000e+000
145600000	0.000000e+000	0.000000e+000	-4.649849e-002	3.589364e-002	0.000000e+000	0.000000e+000	0.000000e+000	0.000000e+000
145700000	0.000000e+000	0.000000e+000	-4.585303e-002	3.499014e-002	0.000000e+000	0.000000e+000	0.000000e+000	0.000000e+000
145800000	0.000000e+000	0.000000e+000	-4.566465e-002	3.404735e-002	0.000000e+000	0.000000e+000	0.000000e+000	0.000000e+000
145900000	0.000000e+000	0.000000e+000	-4.528581e-002	3.310620e-002	0.000000e+000	0.000000e+000	0.000000e+000	0.000000e+000
146000000	0.000000e+000	0.000000e+000	-4.476134e-002	3.217006e-002	0.000000e+000	0.000000e+000	0.000000e+000	0.000000e+000
146100000	0.000000e+000	0.000000e+000	-4.453821e-002	3.122254e-002	0.000000e+000	0.000000e+000	0.000000e+000	0.000000e+000
146200000	0.000000e+000	0.000000e+000	-4.412485e-002	3.039345e-002	0.000000e+000	0.000000e+000	0.000000e+000	0.000000e+000
146300000	0.000000e+000	0.000000e+000	-4.389658e-002	2.927686e-002	0.000000e+000	0.000000e+000	0.000000e+000	0.000000e+000
146400000	0.000000e+000	0.000000e+000	-4.360740e-002	2.829774e-002	0.000000e+000	0.000000e+000	0.000000e+000	0.000000e+000
146500000	0.000000e+000	0.000000e+000	-4.325323e-002	2.731362e-002	0.000000e+000	0.000000e+000	0.000000e+000	0.000000e+000
146600000	0.000000e+000	0.000000e+000	-4.304853e-002	2.629368e-002	0.000000e+000	0.000000e+000	0.000000e+000	0.000000e+000
146700000	0.000000e+000	0.000000e+000	-4.278077e-002	2.530917e-002	0.000000e+000	0.000000e+000	0.000000e+000	0.000000e+000
146800000	0.000000e+000	0.000000e+000	-4.244839e-002	2.425428e-002	0.000000e+000	0.000000e+000	0.000000e+000	0.000000e+000
146900000	0.000000e+000	0.000000e+000	-4.230205e-002	2.325263e-002	0.000000e+000	0.000000e+000	0.000000e+000	0.000000e+000
147000000	0.000000e+000	0.000000e+000	-4.231504e-002	2.249234e-002	0.000000e+000	0.000000e+000	0.000000e+000	0.000000e+000
147100000	0.000000e+000	0.000000e+000	-4.168303e-002	2.135846e-002	0.000000e+000	0.000000e+000	0.000000e+000	0.000000e+000
147200000	0.000000e+000	0.000000e+000	-4.189075e-002	2.041502e-002	0.000000e+000	0.000000e+000	0.000000e+000	0.000000e+000
147300000	0.000000e+000	0.000000e+000	-4.169242e-002	1.963229e-002	0.000000e+000	0.000000e+000	0.000000e+000	0.000000e+000
147400000	0.000000e+000	0.000000e+000	-4.154594e-002	1.854246e-002	0.000000e+000	0.000000e+000	0.000000e+000	0.000000e+000
147500000	0.000000e+000	0.000000e+000	-4.137180e-002	1.738143e-002	0.000000e+000	0.000000e+000	0.000000e+000	0.000000e+000
147600000	0.000000e+000	0.000000e+000	-4.139439e-002	1.640481e-002	0.000000e+000	0.000000e+000	0.000000e+000	0.000000e+000
147700000	0.000000e+000	0.000000e+000	-4.122372e-002	1.559250e-002	0.000000e+000	0.000000e+000	0.000000e+000	0.000000e+000
147800000	0.000000e+000	0.000000e+000	-4.125382e-002	1.441113e-002	0.000000e+000	0.000000e+000	0.000000e+000	0.000000e+000
147900000	0.000000e+000	0.000000e+000	-4.112422e-002	1.354423e-002	0.000000e+000	0.000000e+000	0.000000e+000	0.000000e+000
148000000	0.000000e+000	0.000000e+000	-4.108438e-002	1.264829e-002	0.000000e+000	0.000000e+000	0.000000e+000	0.000000e+000
148100000	0.000000e+000	0.000000e+000	-4.127493e-002	1.162120e-002	0.000000e+000	0.000000e+000	0.000000e+000	0.000000e+000
148200000	0.000000e+000	0.000000e+000	-4.118460e-002	1.070567e-002	0.000000e+000	0.000000e+000	0.000000e+000	0.000000e+000
148300000	0.000000e+000	0.000000e+000	-4.127537e-002	9.572488e-003	0.000000e+000	0.000000e+000	0.000000e+000	0.000000e+000
148400000	0.000000e+000	0.000000e+000	-4.123040e-002	8.539968e-003	0.000000e+000	0.000000e+000	0.000000e+000	0.000000e+000
148500000	0.000000e+000	0.000000e+000	-4.135005e-002	7.728968e-003	0.000000e+000	0.000000e+000	0.000000e+000	0.000000e+000
148600000	0.000000e+000	0.000000e+000	-4.135013e-002	6.718705e-003	0.000000e+000	0.000000e+000	0.000000e+000	0.000000e+000
148700000	0.000000e+000	0.000000e+000	-4.141346e-002	5.754915e-003	0.000000e+000	0.000000e+000	0.000000e+000	0.000000e+000
148800000	0.000000e+000	0.000000e+000	-4.152396e-002	4.660307e-003	0.000000e+000	0.000000e+000	0.000000e+000	0.000000e+000
148900000	0.000000e+000	0.000000e+000	-4.174407e-002	3.686119e-003	0.000000e+000	0.000000e+000	0.000000e+000	0.000000e+000
149000000	0.000000e+000	0.000000e+000	-4.191822e-002	2.799360e-003	0.000000e+000	0.000000e+000	0.000000e+000	0.000000e+000
149100000	0.000000e+000	0.000000e+000	-4.229966e-002	1.893642e-003	0.000000e+000	0.000000e+000	0.000000e+000	0.000000e+000
149200000	0.000000e+000	0.000000e+000	-4.240475e-002	7.525709e-004	0.000000e+000	0.000000e+000	0.000000e+000	0.000000e+000
149300000	0.000000e+000	0.000000e+000	-4.244505e-002	-2.313056e-004	0.000000e+000	0.000000e+000	0.000000e+000	0.000000e+000
149400000	0.000000e+000	0.000000e+000	-4.268224e-002	-1.119240e-003	0.000000e+000	0.000000e+000	0.000000e+000	0.000000e+000
149500000	0.000000e+000	0.000000e+000	-4.284324e-002	-1.998169e-003	0.000000e+000	0.000000e+000	0.000000e+000	0.000000e+000
149600000	0.000000e+000	0.000000e+000	-4.320050e-002	-2.890899e-003	0.000000e+000	0.000000e+000	0.000000e+000	0.000000e+000
149700000	0.000000e+000	0.000000e+000	-4.355028e-002	-4.092923e-003	0.000000e+000	0.000000e+000	0.000000e+000	0.000000e+000
149800000	0.000000e+000	0.000000e+000	-4.377324e-002	-4.809813e-003	0.000000e+000	0.000000e+000	0.000000e+000	0.000000e+000
149900000	0.000000e+000	0.000000e+000	-4.412115e-002	-5.689139e-003	0.000000e+000	0.000000e+000	0.000000e+000	0.000000e+000
150000000	0.000000e+000	0.000000e+000	-4.445105e-002	-6.803361e-003	0.000000e+000	0.000000e+000	0.000000e+000	0.000000e+000
150100000	0.000000e+000	0.000000e+000	-4.462049e-002	-7.724637e-003	0.000000e+000	0.000000e+000	0.000000e+000	0.000000e+000
150200000	0.000000e+000	0.000000e+000	-4.513397e-002	-8.600415e-003	0.000000e+000	0.000000e+000	0.000000e+000	0.000000e+000
150300000	0.000000e+000	0.000000e+000	-4.547352e-002	-9.574909e-003	0.000000e+000	0.000000e+000	0.000000e+000	0.000000e+000
150400000	0.000000e+000	0.000000e+000	-4.594886e-002	-1.060425e-002	0.000000e+000	0.000000e+000	0.000000e+000	0.000000e+000
150500000	0.000000e+000	0.000000e+000	-4.611927e-002	-1.141938e-002	0.000000e+000	0.000000e+000	0.000000e+000	0.000000e+000
150600000	0.000000e+000	0.000000e+000	-4.673484e-002	-1.222109e-002	0.000000e+000	0.000000e+000	0.000000e+000	0.000000e+000
150700000	0.000000e+000	0.000000e+000	-4.717029e-002	-1.320703e-002	0.000000e+000	0.000000e+000	0.000000e+000	0.000000e+000
150800000	0.000000e+000	0.000000e+000	-4.772873e-002	-1.401739e-002	0.000000e+000	0.000000e+000	0.000000e+000	0.000000e+000
150900000	0.000000e+000	0.000000e+000	-4.828196e-002	-1.497252e-002	0.000000e+000	0.000000e+000	0.000000e+000	0.000000e+000
151000000	0.000000e+000	0.000000e+000	-4.874297e-002	-1.581953e-002	0.000000e+000	0.000000e+000	0.000000e+000	0.000000e+000
151100000	0.000000e+000	0.000000e+000	-4.919386e-002	-1.676024e-002	0.000000e+000	0.000000e+000	0.000000e+000	0.000000e+000
151200000	0.000000e+000	0.000000e+000	-4.971212e-002	-1.764549e-002	0.000000e+000	0.000000e+000	0.000000e+000	0.000000e+000
151300000	0.000000e+000	0.000000e+000	-5.018277e-002	-1.840092e-002	0.000000e+000	0.000000e+000	0.000000e+000	0.000000e+000
151400000	0.000000e+000	0.000000e+000	-5.092432e-002	-1.923732e-002	0.000000e+000	0.000000e+000	0.000000e+000	0.000000e+000
151500000	0.000000e+000	0.000000e+000	-5.147565e-002	-2.011580e-002	0.000000e+000	0.000000e+000	0.000000e+000	0.000000e+000
151600000	0.000000e+000	0.000000e+000	-5.204730e-002	-2.080886e-002	0.000000e+000	0.000000e+000	0.000000e+000	0.000000e+000
151700000	0.000000e+000	0.000000e+000	-5.267209e-002	-2.184973e-002	0.000000e+000	0.000000e+000	0.000000e+000	0.000000e+000
151800000	0.000000e+000	0.000000e+000	-5.326204e-002	-2.268979e-002	0.000000e+000	0.000000e+000	0.000000e+000	0.000000e+000
151900000	0.000000e+000	0.000000e+000	-5.409083e-002	-2.338692e-002	0.000000e+000	0.000000e+000	0.000000e+000	0.000000e+000
152000000	0.000000e+000	0.000000e+000	-5.458582e-002	-2.419446e-002	0.000000e+000	0.000000e+000	0.000000e+000	0.000000e+000
152100000	0.000000e+000	0.000000e+000	-5.536866e-002	-2.504128e-002	0.000000e+000	0.000000e+000	0.000000e+000	0.000000e+000
152200000	0.000000e+000	0.000000e+000	-5.610862e-002	-2.608537e-002	0.000000e+000	0.000000e+000	0.000000e+000	0.000000e+000
152300000	0.000000e+000	0.000000e+000	-5.680792e-002	-2.634887e-002	0.000000e+000	0.000000e+000	0.000000e+000	0.000000e+000
152400000	0.000000e+000	0.000000e+000	-5.758161e-002	-2.709760e-002	0.000000e+000	0.000000e+000	0.000000e+000	0.000000e+000
152500000	0.000000e+000	0.000000e+000	-5.836053e-002	-2.799097e-002	0.000000e+000	0.000000e+000	0.000000e+000	0.000000e+000
152600000	0.000000e+000	0.000000e+000	-5.903120e-002	-2.881123e-002	0.000000e+000	0.000000e+000	0.000000e+000	0.000000e+000
152700000	0.000000e+000	0.000000e+000	-5.987774e-002	-2.953415e-002	0.000000e+000	0.000000e+000	0.000000e+000	0.000000e+000
152800000	0.000000e+000	0.000000e+000	-6.070650e-002	-3.031424e-002	0.000000e+000	0.000000e+000	0.000000e+000	0.000000e+000
152900000	0.000000e+000	0.000000e+000	-6.135242e-002	-3.088514e-002	0.000000e+000	0.000000e+000	0.000000e+000	0.000000e+000
153000000	0.000000e+000	0.000000e+000	-6.235903e-002	-3.155321e-002	0.000000e+000	0.000000e+000	0.000000e+000	0.000000e+000
153100000	0.000000e+000	0.000000e+000	-6.305115e-002	-3.210827e-002	0.000000e+000	0.000000e+000	0.000000e+000	0.000000e+000
153200000	0.000000e+000	0.000000e+000	-6.394782e-002	-3.305777e-002	0.000000e+000	0.000000e+000	0.000000e+000	0.000000e+000
153300000	0.000000e+000	0.000000e+000	-6.473228e-002	-3.364090e-002	0.000000e+000	0.000000e+000	0.000000e+000	0.000000e+000
153400000	0.000000e+000	0.000000e+000	-6.563997e-002	-3.415595e-002	0.000000e+000	0.000000e+000	0.000000e+000	0.000000e+000
153500000	0.000000e+000	0.000000e+000	-6.653546e-002	-3.493104e-002	0.000000e+000	0.000000e+000	0.000000e+000	0.000000e+000
153600000	0.000000e+000	0.000000e+000	-6.748576e-002	-3.536045e-002	0.000000e+000	0.000000e+000	0.000000e+000	0.000000e+000
153700000	0.000000e+000	0.000000e+000	-6.834320e-002	-3.606750e-002	0.000000e+000	0.000000e+000	0.000000e+000	0.000000e+000
153800000	0.000000e+000	0.000000e+000	-6.940635e-002	-3.667409e-002	0.000000e+000	0.000000e+000	0.000000e+000	0.000000e+000
153900000	0.000000e+000	0.000000e+000	-7.014048e-002	-3.734973e-002	0.000000e+000	0.000000e+000	0.000000e+000	0.000000e+000
154000000	0.000000e+000	0.000000e+000	-7.127225e-002	-3.790662e-002	0.000000e+000	0.000000e+000	0.000000e+000	0.000000e+000
154100000	0.000000e+000	0.000000e+000	-7.223504e-002	-3.852211e-002	0.000000e+000	0.000000e+000	0.000000e+000	0.000000e+000
154200000	0.000000e+000	0.000000e+000	-7.328045e-002	-3.907884e-002	0.000000e+000	0.000000e+000	0.000000e+000	0.000000e+000
154300000	0.000000e+000	0.000000e+000	-7.412759e-002	-3.952485e-002	0.000000e+000	0.000000e+000	0.000000e+000	0.000000e+000
154400000	0.000000e+000	0.000000e+000	-7.527379e-002	-4.005869e-002	0.000000e+000	0.000000e+000	0.000000e+000	0.000000e+000
154500000	0.000000e+000	0.000000e+000	-7.636070e-002	-4.045903e-002	0.000000e+000	0.000000e+000	0.000000e+000	0.000000e+000
154600000	0.000000e+000	0.000000e+000	-7.726536e-002	-4.101334e-002	0.000000e+000	0.000000e+000	0.000000e+000	0.000000e+000
154700000	0.000000e+000	0.000000e+000	-7.833692e-002	-4.143697e-002	0.000000e+000	0.000000e+000	0.000000e+000	0.000000e+000
154800000	0.000000e+000	0.000000e+000	-7.938952e-002	-4.180828e-002	0.000000e+000	0.000000e+000	0.000000e+000	0.000000e+000
154900000	0.000000e+000	0.000000e+000	-8.052020e-002	-4.232743e-002	0.000000e+000	0.000000e+000	0.000000e+000	0.000000e+000
155000000	0.000000e+000	0.000000e+000	-8.159968e-002	-4.253402e-002	0.000000e+000	0.000000e+000	0.000000e+000	0.000000e+000
155100000	0.000000e+000	0.000000e+000	-8.271187e-002	-4.310406e-002	0.000000e+000	0.000000e+000	0.000000e+000	0.000000e+000
155200000	0.000000e+000	0.000000e+000	-8.374325e-002	-4.363889e-002	0.000000e+000	0.000000e+000	0.000000e+000	0.000000e+000
155300000	0.000000e+000	0.000000e+000	-8.485737e-002	-4.400050e-002	0.000000e+000	0.000000e+000	0.000000e+000	0.000000e+000
155400000	0.000000e+000	0.000000e+000	-8.602967e-002	-4.430316e-002	0.000000e+000	0.000000e+000	0.000000e+000	0.000000e+000
155500000	0.000000e+000	0.000000e+000	-8.705994e-002	-4.485799e-002	0.000000e+000	0.000000e+000	0.000000e+000	0.000000e+000
155600000	0.000000e+000	0.000000e+000	-8.836118e-002	-4.516067e-002	0.000000e+000	0.000000e+000	0.000000e+000	0.000000e+000
155700000	0.000000e+000	0.000000e+000	-8.960001e-002	-4.528273e-002	0.000000e+000	0.000000e+000	0.000000e+000	0.000000e+000
155800000	0.000000e+000	0.000000e+000	-9.083658e-002	-4.566654e-002	0.000000e+000	0.000000e+000	0.000000e+000	0.000000e+000
