!Agilent Technologies,E5072A,MY51200456,A.01.14
!Date: Tue Nov 19 12:32:22 2019
!Data & Calibration Information:
!Freq	S11:NONE(--)	S21:NONE(--)	S12:NONE(--)	S22:NONE(--)
!PortZ  Port1:50+j0    Port2:50+j0
!Above PortZ is port z conversion or system Z0 setting when saving the data.
!When reading, reference impedance value at option line is always used.
# Hz S RI R 50
140000000	0.000000e+000	0.000000e+000	-9.732962e-002	5.078625e-002	0.000000e+000	0.000000e+000	0.000000e+000	0.000000e+000
140100000	0.000000e+000	0.000000e+000	-9.616067e-002	5.037960e-002	0.000000e+000	0.000000e+000	0.000000e+000	0.000000e+000
140200000	0.000000e+000	0.000000e+000	-9.506394e-002	5.008510e-002	0.000000e+000	0.000000e+000	0.000000e+000	0.000000e+000
140300000	0.000000e+000	0.000000e+000	-9.410102e-002	4.948996e-002	0.000000e+000	0.000000e+000	0.000000e+000	0.000000e+000
140400000	0.000000e+000	0.000000e+000	-9.306002e-002	4.921199e-002	0.000000e+000	0.000000e+000	0.000000e+000	0.000000e+000
140500000	0.000000e+000	0.000000e+000	-9.227311e-002	4.884334e-002	0.000000e+000	0.000000e+000	0.000000e+000	0.000000e+000
140600000	0.000000e+000	0.000000e+000	-9.111214e-002	4.823754e-002	0.000000e+000	0.000000e+000	0.000000e+000	0.000000e+000
140700000	0.000000e+000	0.000000e+000	-9.022469e-002	4.789983e-002	0.000000e+000	0.000000e+000	0.000000e+000	0.000000e+000
140800000	0.000000e+000	0.000000e+000	-8.928172e-002	4.751293e-002	0.000000e+000	0.000000e+000	0.000000e+000	0.000000e+000
140900000	0.000000e+000	0.000000e+000	-8.831571e-002	4.691300e-002	0.000000e+000	0.000000e+000	0.000000e+000	0.000000e+000
141000000	0.000000e+000	0.000000e+000	-8.732623e-002	4.644379e-002	0.000000e+000	0.000000e+000	0.000000e+000	0.000000e+000
141100000	0.000000e+000	0.000000e+000	-8.647121e-002	4.586007e-002	0.000000e+000	0.000000e+000	0.000000e+000	0.000000e+000
141200000	0.000000e+000	0.000000e+000	-8.562810e-002	4.549734e-002	0.000000e+000	0.000000e+000	0.000000e+000	0.000000e+000
141300000	0.000000e+000	0.000000e+000	-8.487325e-002	4.500531e-002	0.000000e+000	0.000000e+000	0.000000e+000	0.000000e+000
141400000	0.000000e+000	0.000000e+000	-8.379347e-002	4.443809e-002	0.000000e+000	0.000000e+000	0.000000e+000	0.000000e+000
141500000	0.000000e+000	0.000000e+000	-8.300561e-002	4.381107e-002	0.000000e+000	0.000000e+000	0.000000e+000	0.000000e+000
141600000	0.000000e+000	0.000000e+000	-8.212854e-002	4.358859e-002	0.000000e+000	0.000000e+000	0.000000e+000	0.000000e+000
141700000	0.000000e+000	0.000000e+000	-8.128179e-002	4.273426e-002	0.000000e+000	0.000000e+000	0.000000e+000	0.000000e+000
141800000	0.000000e+000	0.000000e+000	-8.040994e-002	4.217278e-002	0.000000e+000	0.000000e+000	0.000000e+000	0.000000e+000
141900000	0.000000e+000	0.000000e+000	-7.958843e-002	4.158138e-002	0.000000e+000	0.000000e+000	0.000000e+000	0.000000e+000
142000000	0.000000e+000	0.000000e+000	-7.895519e-002	4.107506e-002	0.000000e+000	0.000000e+000	0.000000e+000	0.000000e+000
142100000	0.000000e+000	0.000000e+000	-7.809978e-002	4.036422e-002	0.000000e+000	0.000000e+000	0.000000e+000	0.000000e+000
142200000	0.000000e+000	0.000000e+000	-7.728158e-002	3.997226e-002	0.000000e+000	0.000000e+000	0.000000e+000	0.000000e+000
142300000	0.000000e+000	0.000000e+000	-7.650790e-002	3.932998e-002	0.000000e+000	0.000000e+000	0.000000e+000	0.000000e+000
142400000	0.000000e+000	0.000000e+000	-7.593984e-002	3.861766e-002	0.000000e+000	0.000000e+000	0.000000e+000	0.000000e+000
142500000	0.000000e+000	0.000000e+000	-7.505698e-002	3.803301e-002	0.000000e+000	0.000000e+000	0.000000e+000	0.000000e+000
142600000	0.000000e+000	0.000000e+000	-7.441046e-002	3.737889e-002	0.000000e+000	0.000000e+000	0.000000e+000	0.000000e+000
142700000	0.000000e+000	0.000000e+000	-7.373867e-002	3.674131e-002	0.000000e+000	0.000000e+000	0.000000e+000	0.000000e+000
142800000	0.000000e+000	0.000000e+000	-7.302089e-002	3.614850e-002	0.000000e+000	0.000000e+000	0.000000e+000	0.000000e+000
142900000	0.000000e+000	0.000000e+000	-7.229875e-002	3.544783e-002	0.000000e+000	0.000000e+000	0.000000e+000	0.000000e+000
143000000	0.000000e+000	0.000000e+000	-7.159356e-002	3.476306e-002	0.000000e+000	0.000000e+000	0.000000e+000	0.000000e+000
143100000	0.000000e+000	0.000000e+000	-7.106979e-002	3.413472e-002	0.000000e+000	0.000000e+000	0.000000e+000	0.000000e+000
143200000	0.000000e+000	0.000000e+000	-7.053067e-002	3.340996e-002	0.000000e+000	0.000000e+000	0.000000e+000	0.000000e+000
143300000	0.000000e+000	0.000000e+000	-6.967089e-002	3.273533e-002	0.000000e+000	0.000000e+000	0.000000e+000	0.000000e+000
143400000	0.000000e+000	0.000000e+000	-6.941978e-002	3.196035e-002	0.000000e+000	0.000000e+000	0.000000e+000	0.000000e+000
143500000	0.000000e+000	0.000000e+000	-6.858436e-002	3.131632e-002	0.000000e+000	0.000000e+000	0.000000e+000	0.000000e+000
143600000	0.000000e+000	0.000000e+000	-6.792565e-002	3.052390e-002	0.000000e+000	0.000000e+000	0.000000e+000	0.000000e+000
143700000	0.000000e+000	0.000000e+000	-6.741757e-002	2.978678e-002	0.000000e+000	0.000000e+000	0.000000e+000	0.000000e+000
143800000	0.000000e+000	0.000000e+000	-6.706358e-002	2.907392e-002	0.000000e+000	0.000000e+000	0.000000e+000	0.000000e+000
143900000	0.000000e+000	0.000000e+000	-6.640127e-002	2.845827e-002	0.000000e+000	0.000000e+000	0.000000e+000	0.000000e+000
144000000	0.000000e+000	0.000000e+000	-6.576315e-002	2.761473e-002	0.000000e+000	0.000000e+000	0.000000e+000	0.000000e+000
144100000	0.000000e+000	0.000000e+000	-6.555377e-002	2.704308e-002	0.000000e+000	0.000000e+000	0.000000e+000	0.000000e+000
144200000	0.000000e+000	0.000000e+000	-6.501126e-002	2.629298e-002	0.000000e+000	0.000000e+000	0.000000e+000	0.000000e+000
144300000	0.000000e+000	0.000000e+000	-6.455363e-002	2.536440e-002	0.000000e+000	0.000000e+000	0.000000e+000	0.000000e+000
144400000	0.000000e+000	0.000000e+000	-6.413529e-002	2.467617e-002	0.000000e+000	0.000000e+000	0.000000e+000	0.000000e+000
144500000	0.000000e+000	0.000000e+000	-6.363397e-002	2.388013e-002	0.000000e+000	0.000000e+000	0.000000e+000	0.000000e+000
144600000	0.000000e+000	0.000000e+000	-6.322341e-002	2.310910e-002	0.000000e+000	0.000000e+000	0.000000e+000	0.000000e+000
144700000	0.000000e+000	0.000000e+000	-6.277741e-002	2.236565e-002	0.000000e+000	0.000000e+000	0.000000e+000	0.000000e+000
144800000	0.000000e+000	0.000000e+000	-6.240251e-002	2.159630e-002	0.000000e+000	0.000000e+000	0.000000e+000	0.000000e+000
144900000	0.000000e+000	0.000000e+000	-6.194389e-002	2.072638e-002	0.000000e+000	0.000000e+000	0.000000e+000	0.000000e+000
145000000	0.000000e+000	0.000000e+000	-6.180188e-002	2.000160e-002	0.000000e+000	0.000000e+000	0.000000e+000	0.000000e+000
145100000	0.000000e+000	0.000000e+000	-6.139236e-002	1.915040e-002	0.000000e+000	0.000000e+000	0.000000e+000	0.000000e+000
145200000	0.000000e+000	0.000000e+000	-6.089405e-002	1.841147e-002	0.000000e+000	0.000000e+000	0.000000e+000	0.000000e+000
145300000	0.000000e+000	0.000000e+000	-6.064706e-002	1.746878e-002	0.000000e+000	0.000000e+000	0.000000e+000	0.000000e+000
145400000	0.000000e+000	0.000000e+000	-6.033079e-002	1.697354e-002	0.000000e+000	0.000000e+000	0.000000e+000	0.000000e+000
145500000	0.000000e+000	0.000000e+000	-6.009465e-002	1.604498e-002	0.000000e+000	0.000000e+000	0.000000e+000	0.000000e+000
145600000	0.000000e+000	0.000000e+000	-5.997003e-002	1.511426e-002	0.000000e+000	0.000000e+000	0.000000e+000	0.000000e+000
145700000	0.000000e+000	0.000000e+000	-5.962316e-002	1.444854e-002	0.000000e+000	0.000000e+000	0.000000e+000	0.000000e+000
145800000	0.000000e+000	0.000000e+000	-5.940863e-002	1.355632e-002	0.000000e+000	0.000000e+000	0.000000e+000	0.000000e+000
145900000	0.000000e+000	0.000000e+000	-5.928224e-002	1.283301e-002	0.000000e+000	0.000000e+000	0.000000e+000	0.000000e+000
146000000	0.000000e+000	0.000000e+000	-5.900215e-002	1.186434e-002	0.000000e+000	0.000000e+000	0.000000e+000	0.000000e+000
146100000	0.000000e+000	0.000000e+000	-5.873188e-002	1.110867e-002	0.000000e+000	0.000000e+000	0.000000e+000	0.000000e+000
146200000	0.000000e+000	0.000000e+000	-5.848967e-002	1.041131e-002	0.000000e+000	0.000000e+000	0.000000e+000	0.000000e+000
146300000	0.000000e+000	0.000000e+000	-5.845048e-002	9.554693e-003	0.000000e+000	0.000000e+000	0.000000e+000	0.000000e+000
146400000	0.000000e+000	0.000000e+000	-5.843372e-002	8.578093e-003	0.000000e+000	0.000000e+000	0.000000e+000	0.000000e+000
146500000	0.000000e+000	0.000000e+000	-5.818927e-002	7.875099e-003	0.000000e+000	0.000000e+000	0.000000e+000	0.000000e+000
146600000	0.000000e+000	0.000000e+000	-5.821531e-002	6.849830e-003	0.000000e+000	0.000000e+000	0.000000e+000	0.000000e+000
146700000	0.000000e+000	0.000000e+000	-5.803066e-002	6.257663e-003	0.000000e+000	0.000000e+000	0.000000e+000	0.000000e+000
146800000	0.000000e+000	0.000000e+000	-5.799055e-002	5.367919e-003	0.000000e+000	0.000000e+000	0.000000e+000	0.000000e+000
146900000	0.000000e+000	0.000000e+000	-5.777521e-002	4.389229e-003	0.000000e+000	0.000000e+000	0.000000e+000	0.000000e+000
147000000	0.000000e+000	0.000000e+000	-5.794081e-002	3.626747e-003	0.000000e+000	0.000000e+000	0.000000e+000	0.000000e+000
147100000	0.000000e+000	0.000000e+000	-5.782622e-002	2.727532e-003	0.000000e+000	0.000000e+000	0.000000e+000	0.000000e+000
147200000	0.000000e+000	0.000000e+000	-5.783929e-002	1.961696e-003	0.000000e+000	0.000000e+000	0.000000e+000	0.000000e+000
147300000	0.000000e+000	0.000000e+000	-5.786061e-002	1.256122e-003	0.000000e+000	0.000000e+000	0.000000e+000	0.000000e+000
147400000	0.000000e+000	0.000000e+000	-5.788071e-002	2.676016e-004	0.000000e+000	0.000000e+000	0.000000e+000	0.000000e+000
147500000	0.000000e+000	0.000000e+000	-5.771521e-002	-6.695188e-004	0.000000e+000	0.000000e+000	0.000000e+000	0.000000e+000
147600000	0.000000e+000	0.000000e+000	-5.795066e-002	-1.311443e-003	0.000000e+000	0.000000e+000	0.000000e+000	0.000000e+000
147700000	0.000000e+000	0.000000e+000	-5.806524e-002	-2.223716e-003	0.000000e+000	0.000000e+000	0.000000e+000	0.000000e+000
147800000	0.000000e+000	0.000000e+000	-5.827644e-002	-3.014274e-003	0.000000e+000	0.000000e+000	0.000000e+000	0.000000e+000
147900000	0.000000e+000	0.000000e+000	-5.839061e-002	-3.909569e-003	0.000000e+000	0.000000e+000	0.000000e+000	0.000000e+000
148000000	0.000000e+000	0.000000e+000	-5.849362e-002	-4.561339e-003	0.000000e+000	0.000000e+000	0.000000e+000	0.000000e+000
148100000	0.000000e+000	0.000000e+000	-5.878396e-002	-5.534336e-003	0.000000e+000	0.000000e+000	0.000000e+000	0.000000e+000
148200000	0.000000e+000	0.000000e+000	-5.865170e-002	-6.261316e-003	0.000000e+000	0.000000e+000	0.000000e+000	0.000000e+000
148300000	0.000000e+000	0.000000e+000	-5.885810e-002	-7.111034e-003	0.000000e+000	0.000000e+000	0.000000e+000	0.000000e+000
148400000	0.000000e+000	0.000000e+000	-5.905110e-002	-7.948140e-003	0.000000e+000	0.000000e+000	0.000000e+000	0.000000e+000
148500000	0.000000e+000	0.000000e+000	-5.929634e-002	-8.672350e-003	0.000000e+000	0.000000e+000	0.000000e+000	0.000000e+000
148600000	0.000000e+000	0.000000e+000	-5.959173e-002	-9.618851e-003	0.000000e+000	0.000000e+000	0.000000e+000	0.000000e+000
148700000	0.000000e+000	0.000000e+000	-5.970006e-002	-1.042166e-002	0.000000e+000	0.000000e+000	0.000000e+000	0.000000e+000
148800000	0.000000e+000	0.000000e+000	-5.994179e-002	-1.100496e-002	0.000000e+000	0.000000e+000	0.000000e+000	0.000000e+000
148900000	0.000000e+000	0.000000e+000	-6.016008e-002	-1.182522e-002	0.000000e+000	0.000000e+000	0.000000e+000	0.000000e+000
149000000	0.000000e+000	0.000000e+000	-6.056185e-002	-1.279848e-002	0.000000e+000	0.000000e+000	0.000000e+000	0.000000e+000
149100000	0.000000e+000	0.000000e+000	-6.087808e-002	-1.351467e-002	0.000000e+000	0.000000e+000	0.000000e+000	0.000000e+000
149200000	0.000000e+000	0.000000e+000	-6.112416e-002	-1.440838e-002	0.000000e+000	0.000000e+000	0.000000e+000	0.000000e+000
149300000	0.000000e+000	0.000000e+000	-6.161731e-002	-1.515478e-002	0.000000e+000	0.000000e+000	0.000000e+000	0.000000e+000
149400000	0.000000e+000	0.000000e+000	-6.191917e-002	-1.576662e-002	0.000000e+000	0.000000e+000	0.000000e+000	0.000000e+000
149500000	0.000000e+000	0.000000e+000	-6.220201e-002	-1.670398e-002	0.000000e+000	0.000000e+000	0.000000e+000	0.000000e+000
149600000	0.000000e+000	0.000000e+000	-6.260767e-002	-1.761542e-002	0.000000e+000	0.000000e+000	0.000000e+000	0.000000e+000
149700000	0.000000e+000	0.000000e+000	-6.309518e-002	-1.834199e-002	0.000000e+000	0.000000e+000	0.000000e+000	0.000000e+000
149800000	0.000000e+000	0.000000e+000	-6.316343e-002	-1.900664e-002	0.000000e+000	0.000000e+000	0.000000e+000	0.000000e+000
149900000	0.000000e+000	0.000000e+000	-6.375106e-002	-1.962244e-002	0.000000e+000	0.000000e+000	0.000000e+000	0.000000e+000
150000000	0.000000e+000	0.000000e+000	-6.432692e-002	-2.051270e-002	0.000000e+000	0.000000e+000	0.000000e+000	0.000000e+000
150100000	0.000000e+000	0.000000e+000	-6.483575e-002	-2.128608e-002	0.000000e+000	0.000000e+000	0.000000e+000	0.000000e+000
150200000	0.000000e+000	0.000000e+000	-6.527353e-002	-2.189703e-002	0.000000e+000	0.000000e+000	0.000000e+000	0.000000e+000
150300000	0.000000e+000	0.000000e+000	-6.567378e-002	-2.275602e-002	0.000000e+000	0.000000e+000	0.000000e+000	0.000000e+000
150400000	0.000000e+000	0.000000e+000	-6.617909e-002	-2.352688e-002	0.000000e+000	0.000000e+000	0.000000e+000	0.000000e+000
150500000	0.000000e+000	0.000000e+000	-6.675216e-002	-2.420370e-002	0.000000e+000	0.000000e+000	0.000000e+000	0.000000e+000
150600000	0.000000e+000	0.000000e+000	-6.734990e-002	-2.489870e-002	0.000000e+000	0.000000e+000	0.000000e+000	0.000000e+000
150700000	0.000000e+000	0.000000e+000	-6.771358e-002	-2.564847e-002	0.000000e+000	0.000000e+000	0.000000e+000	0.000000e+000
150800000	0.000000e+000	0.000000e+000	-6.842245e-002	-2.645176e-002	0.000000e+000	0.000000e+000	0.000000e+000	0.000000e+000
150900000	0.000000e+000	0.000000e+000	-6.914625e-002	-2.700357e-002	0.000000e+000	0.000000e+000	0.000000e+000	0.000000e+000
151000000	0.000000e+000	0.000000e+000	-6.960308e-002	-2.762100e-002	0.000000e+000	0.000000e+000	0.000000e+000	0.000000e+000
151100000	0.000000e+000	0.000000e+000	-7.022164e-002	-2.837644e-002	0.000000e+000	0.000000e+000	0.000000e+000	0.000000e+000
151200000	0.000000e+000	0.000000e+000	-7.102233e-002	-2.902194e-002	0.000000e+000	0.000000e+000	0.000000e+000	0.000000e+000
151300000	0.000000e+000	0.000000e+000	-7.146167e-002	-2.964373e-002	0.000000e+000	0.000000e+000	0.000000e+000	0.000000e+000
151400000	0.000000e+000	0.000000e+000	-7.196575e-002	-3.031298e-002	0.000000e+000	0.000000e+000	0.000000e+000	0.000000e+000
151500000	0.000000e+000	0.000000e+000	-7.288750e-002	-3.099912e-002	0.000000e+000	0.000000e+000	0.000000e+000	0.000000e+000
151600000	0.000000e+000	0.000000e+000	-7.352497e-002	-3.163957e-002	0.000000e+000	0.000000e+000	0.000000e+000	0.000000e+000
151700000	0.000000e+000	0.000000e+000	-7.439771e-002	-3.248083e-002	0.000000e+000	0.000000e+000	0.000000e+000	0.000000e+000
151800000	0.000000e+000	0.000000e+000	-7.491475e-002	-3.293974e-002	0.000000e+000	0.000000e+000	0.000000e+000	0.000000e+000
151900000	0.000000e+000	0.000000e+000	-7.566662e-002	-3.341266e-002	0.000000e+000	0.000000e+000	0.000000e+000	0.000000e+000
152000000	0.000000e+000	0.000000e+000	-7.644229e-002	-3.400262e-002	0.000000e+000	0.000000e+000	0.000000e+000	0.000000e+000
152100000	0.000000e+000	0.000000e+000	-7.717508e-002	-3.458562e-002	0.000000e+000	0.000000e+000	0.000000e+000	0.000000e+000
152200000	0.000000e+000	0.000000e+000	-7.790339e-002	-3.518684e-002	0.000000e+000	0.000000e+000	0.000000e+000	0.000000e+000
152300000	0.000000e+000	0.000000e+000	-7.895810e-002	-3.583992e-002	0.000000e+000	0.000000e+000	0.000000e+000	0.000000e+000
152400000	0.000000e+000	0.000000e+000	-7.956440e-002	-3.642818e-002	0.000000e+000	0.000000e+000	0.000000e+000	0.000000e+000
152500000	0.000000e+000	0.000000e+000	-8.039375e-002	-3.676451e-002	0.000000e+000	0.000000e+000	0.000000e+000	0.000000e+000
152600000	0.000000e+000	0.000000e+000	-8.128549e-002	-3.738152e-002	0.000000e+000	0.000000e+000	0.000000e+000	0.000000e+000
152700000	0.000000e+000	0.000000e+000	-8.198473e-002	-3.781614e-002	0.000000e+000	0.000000e+000	0.000000e+000	0.000000e+000
152800000	0.000000e+000	0.000000e+000	-8.287480e-002	-3.841502e-002	0.000000e+000	0.000000e+000	0.000000e+000	0.000000e+000
152900000	0.000000e+000	0.000000e+000	-8.379020e-002	-3.899033e-002	0.000000e+000	0.000000e+000	0.000000e+000	0.000000e+000
153000000	0.000000e+000	0.000000e+000	-8.456793e-002	-3.927959e-002	0.000000e+000	0.000000e+000	0.000000e+000	0.000000e+000
153100000	0.000000e+000	0.000000e+000	-8.535432e-002	-3.974194e-002	0.000000e+000	0.000000e+000	0.000000e+000	0.000000e+000
153200000	0.000000e+000	0.000000e+000	-8.631296e-002	-4.021458e-002	0.000000e+000	0.000000e+000	0.000000e+000	0.000000e+000
153300000	0.000000e+000	0.000000e+000	-8.746489e-002	-4.082003e-002	0.000000e+000	0.000000e+000	0.000000e+000	0.000000e+000
153400000	0.000000e+000	0.000000e+000	-8.819311e-002	-4.121484e-002	0.000000e+000	0.000000e+000	0.000000e+000	0.000000e+000
153500000	0.000000e+000	0.000000e+000	-8.917121e-002	-4.157297e-002	0.000000e+000	0.000000e+000	0.000000e+000	0.000000e+000
153600000	0.000000e+000	0.000000e+000	-9.014776e-002	-4.201375e-002	0.000000e+000	0.000000e+000	0.000000e+000	0.000000e+000
153700000	0.000000e+000	0.000000e+000	-9.113495e-002	-4.254850e-002	0.000000e+000	0.000000e+000	0.000000e+000	0.000000e+000
153800000	0.000000e+000	0.000000e+000	-9.190051e-002	-4.296029e-002	0.000000e+000	0.000000e+000	0.000000e+000	0.000000e+000
153900000	0.000000e+000	0.000000e+000	-9.301673e-002	-4.329803e-002	0.000000e+000	0.000000e+000	0.000000e+000	0.000000e+000
154000000	0.000000e+000	0.000000e+000	-9.396421e-002	-4.368373e-002	0.000000e+000	0.000000e+000	0.000000e+000	0.000000e+000
154100000	0.000000e+000	0.000000e+000	-9.499236e-002	-4.378923e-002	0.000000e+000	0.000000e+000	0.000000e+000	0.000000e+000
154200000	0.000000e+000	0.000000e+000	-9.589679e-002	-4.435028e-002	0.000000e+000	0.000000e+000	0.000000e+000	0.000000e+000
154300000	0.000000e+000	0.000000e+000	-9.709713e-002	-4.454533e-002	0.000000e+000	0.000000e+000	0.000000e+000	0.000000e+000
154400000	0.000000e+000	0.000000e+000	-9.796430e-002	-4.482751e-002	0.000000e+000	0.000000e+000	0.000000e+000	0.000000e+000
154500000	0.000000e+000	0.000000e+000	-9.919871e-002	-4.499344e-002	0.000000e+000	0.000000e+000	0.000000e+000	0.000000e+000
154600000	0.000000e+000	0.000000e+000	-1.002235e-001	-4.544956e-002	0.000000e+000	0.000000e+000	0.000000e+000	0.000000e+000
154700000	0.000000e+000	0.000000e+000	-1.013874e-001	-4.562287e-002	0.000000e+000	0.000000e+000	0.000000e+000	0.000000e+000
154800000	0.000000e+000	0.000000e+000	-1.023316e-001	-4.585759e-002	0.000000e+000	0.000000e+000	0.000000e+000	0.000000e+000
154900000	0.000000e+000	0.000000e+000	-1.033491e-001	-4.624504e-002	0.000000e+000	0.000000e+000	0.000000e+000	0.000000e+000
155000000	0.000000e+000	0.000000e+000	-1.045355e-001	-4.636507e-002	0.000000e+000	0.000000e+000	0.000000e+000	0.000000e+000
155100000	0.000000e+000	0.000000e+000	-1.055254e-001	-4.656372e-002	0.000000e+000	0.000000e+000	0.000000e+000	0.000000e+000
155200000	0.000000e+000	0.000000e+000	-1.068301e-001	-4.692978e-002	0.000000e+000	0.000000e+000	0.000000e+000	0.000000e+000
155300000	0.000000e+000	0.000000e+000	-1.079517e-001	-4.700740e-002	0.000000e+000	0.000000e+000	0.000000e+000	0.000000e+000
155400000	0.000000e+000	0.000000e+000	-1.090495e-001	-4.704255e-002	0.000000e+000	0.000000e+000	0.000000e+000	0.000000e+000
155500000	0.000000e+000	0.000000e+000	-1.101506e-001	-4.720240e-002	0.000000e+000	0.000000e+000	0.000000e+000	0.000000e+000
155600000	0.000000e+000	0.000000e+000	-1.113835e-001	-4.735638e-002	0.000000e+000	0.000000e+000	0.000000e+000	0.000000e+000
155700000	0.000000e+000	0.000000e+000	-1.124880e-001	-4.737102e-002	0.000000e+000	0.000000e+000	0.000000e+000	0.000000e+000
