!Agilent Technologies,E5072A,MY51200456,A.01.14
!Date: Tue Nov 19 12:27:07 2019
!Data & Calibration Information:
!Freq	S11:NONE(--)	S21:NONE(--)	S12:NONE(--)	S22:NONE(--)
!PortZ  Port1:50+j0    Port2:50+j0
!Above PortZ is port z conversion or system Z0 setting when saving the data.
!When reading, reference impedance value at option line is always used.
# Hz S RI R 50
140000000	0.000000e+000	0.000000e+000	-9.568928e-002	1.340268e-001	0.000000e+000	0.000000e+000	0.000000e+000	0.000000e+000
140100000	0.000000e+000	0.000000e+000	-9.381036e-002	1.337904e-001	0.000000e+000	0.000000e+000	0.000000e+000	0.000000e+000
140200000	0.000000e+000	0.000000e+000	-9.195524e-002	1.330974e-001	0.000000e+000	0.000000e+000	0.000000e+000	0.000000e+000
140300000	0.000000e+000	0.000000e+000	-9.030026e-002	1.328143e-001	0.000000e+000	0.000000e+000	0.000000e+000	0.000000e+000
140400000	0.000000e+000	0.000000e+000	-8.862238e-002	1.322504e-001	0.000000e+000	0.000000e+000	0.000000e+000	0.000000e+000
140500000	0.000000e+000	0.000000e+000	-8.682746e-002	1.316520e-001	0.000000e+000	0.000000e+000	0.000000e+000	0.000000e+000
140600000	0.000000e+000	0.000000e+000	-8.526135e-002	1.312311e-001	0.000000e+000	0.000000e+000	0.000000e+000	0.000000e+000
140700000	0.000000e+000	0.000000e+000	-8.364688e-002	1.307742e-001	0.000000e+000	0.000000e+000	0.000000e+000	0.000000e+000
140800000	0.000000e+000	0.000000e+000	-8.185431e-002	1.300622e-001	0.000000e+000	0.000000e+000	0.000000e+000	0.000000e+000
140900000	0.000000e+000	0.000000e+000	-8.021559e-002	1.293198e-001	0.000000e+000	0.000000e+000	0.000000e+000	0.000000e+000
141000000	0.000000e+000	0.000000e+000	-7.859710e-002	1.288432e-001	0.000000e+000	0.000000e+000	0.000000e+000	0.000000e+000
141100000	0.000000e+000	0.000000e+000	-7.703213e-002	1.281848e-001	0.000000e+000	0.000000e+000	0.000000e+000	0.000000e+000
141200000	0.000000e+000	0.000000e+000	-7.529401e-002	1.277221e-001	0.000000e+000	0.000000e+000	0.000000e+000	0.000000e+000
141300000	0.000000e+000	0.000000e+000	-7.368678e-002	1.270450e-001	0.000000e+000	0.000000e+000	0.000000e+000	0.000000e+000
141400000	0.000000e+000	0.000000e+000	-7.206397e-002	1.262686e-001	0.000000e+000	0.000000e+000	0.000000e+000	0.000000e+000
141500000	0.000000e+000	0.000000e+000	-7.056480e-002	1.257439e-001	0.000000e+000	0.000000e+000	0.000000e+000	0.000000e+000
141600000	0.000000e+000	0.000000e+000	-6.905211e-002	1.250099e-001	0.000000e+000	0.000000e+000	0.000000e+000	0.000000e+000
141700000	0.000000e+000	0.000000e+000	-6.734520e-002	1.243315e-001	0.000000e+000	0.000000e+000	0.000000e+000	0.000000e+000
141800000	0.000000e+000	0.000000e+000	-6.596565e-002	1.234142e-001	0.000000e+000	0.000000e+000	0.000000e+000	0.000000e+000
141900000	0.000000e+000	0.000000e+000	-6.436381e-002	1.228244e-001	0.000000e+000	0.000000e+000	0.000000e+000	0.000000e+000
142000000	0.000000e+000	0.000000e+000	-6.280681e-002	1.220866e-001	0.000000e+000	0.000000e+000	0.000000e+000	0.000000e+000
142100000	0.000000e+000	0.000000e+000	-6.141477e-002	1.212867e-001	0.000000e+000	0.000000e+000	0.000000e+000	0.000000e+000
142200000	0.000000e+000	0.000000e+000	-6.002334e-002	1.205698e-001	0.000000e+000	0.000000e+000	0.000000e+000	0.000000e+000
142300000	0.000000e+000	0.000000e+000	-5.852930e-002	1.197424e-001	0.000000e+000	0.000000e+000	0.000000e+000	0.000000e+000
142400000	0.000000e+000	0.000000e+000	-5.697030e-002	1.188092e-001	0.000000e+000	0.000000e+000	0.000000e+000	0.000000e+000
142500000	0.000000e+000	0.000000e+000	-5.567378e-002	1.178285e-001	0.000000e+000	0.000000e+000	0.000000e+000	0.000000e+000
142600000	0.000000e+000	0.000000e+000	-5.423386e-002	1.169969e-001	0.000000e+000	0.000000e+000	0.000000e+000	0.000000e+000
142700000	0.000000e+000	0.000000e+000	-5.274858e-002	1.161136e-001	0.000000e+000	0.000000e+000	0.000000e+000	0.000000e+000
142800000	0.000000e+000	0.000000e+000	-5.148834e-002	1.153310e-001	0.000000e+000	0.000000e+000	0.000000e+000	0.000000e+000
142900000	0.000000e+000	0.000000e+000	-5.014568e-002	1.145805e-001	0.000000e+000	0.000000e+000	0.000000e+000	0.000000e+000
143000000	0.000000e+000	0.000000e+000	-4.859749e-002	1.136256e-001	0.000000e+000	0.000000e+000	0.000000e+000	0.000000e+000
143100000	0.000000e+000	0.000000e+000	-4.752391e-002	1.125875e-001	0.000000e+000	0.000000e+000	0.000000e+000	0.000000e+000
143200000	0.000000e+000	0.000000e+000	-4.592085e-002	1.118078e-001	0.000000e+000	0.000000e+000	0.000000e+000	0.000000e+000
143300000	0.000000e+000	0.000000e+000	-4.486056e-002	1.107656e-001	0.000000e+000	0.000000e+000	0.000000e+000	0.000000e+000
143400000	0.000000e+000	0.000000e+000	-4.350488e-002	1.099079e-001	0.000000e+000	0.000000e+000	0.000000e+000	0.000000e+000
143500000	0.000000e+000	0.000000e+000	-4.229055e-002	1.088524e-001	0.000000e+000	0.000000e+000	0.000000e+000	0.000000e+000
143600000	0.000000e+000	0.000000e+000	-4.110241e-002	1.076393e-001	0.000000e+000	0.000000e+000	0.000000e+000	0.000000e+000
143700000	0.000000e+000	0.000000e+000	-3.979688e-002	1.068970e-001	0.000000e+000	0.000000e+000	0.000000e+000	0.000000e+000
143800000	0.000000e+000	0.000000e+000	-3.867638e-002	1.058158e-001	0.000000e+000	0.000000e+000	0.000000e+000	0.000000e+000
143900000	0.000000e+000	0.000000e+000	-3.759001e-002	1.046907e-001	0.000000e+000	0.000000e+000	0.000000e+000	0.000000e+000
144000000	0.000000e+000	0.000000e+000	-3.616184e-002	1.037955e-001	0.000000e+000	0.000000e+000	0.000000e+000	0.000000e+000
144100000	0.000000e+000	0.000000e+000	-3.510781e-002	1.026342e-001	0.000000e+000	0.000000e+000	0.000000e+000	0.000000e+000
144200000	0.000000e+000	0.000000e+000	-3.405310e-002	1.017126e-001	0.000000e+000	0.000000e+000	0.000000e+000	0.000000e+000
144300000	0.000000e+000	0.000000e+000	-3.279513e-002	1.006008e-001	0.000000e+000	0.000000e+000	0.000000e+000	0.000000e+000
144400000	0.000000e+000	0.000000e+000	-3.189313e-002	9.959874e-002	0.000000e+000	0.000000e+000	0.000000e+000	0.000000e+000
144500000	0.000000e+000	0.000000e+000	-3.088823e-002	9.849137e-002	0.000000e+000	0.000000e+000	0.000000e+000	0.000000e+000
144600000	0.000000e+000	0.000000e+000	-2.957743e-002	9.726837e-002	0.000000e+000	0.000000e+000	0.000000e+000	0.000000e+000
144700000	0.000000e+000	0.000000e+000	-2.864238e-002	9.606673e-002	0.000000e+000	0.000000e+000	0.000000e+000	0.000000e+000
144800000	0.000000e+000	0.000000e+000	-2.751103e-002	9.501273e-002	0.000000e+000	0.000000e+000	0.000000e+000	0.000000e+000
144900000	0.000000e+000	0.000000e+000	-2.652781e-002	9.392860e-002	0.000000e+000	0.000000e+000	0.000000e+000	0.000000e+000
145000000	0.000000e+000	0.000000e+000	-2.557951e-002	9.271930e-002	0.000000e+000	0.000000e+000	0.000000e+000	0.000000e+000
145100000	0.000000e+000	0.000000e+000	-2.456418e-002	9.159085e-002	0.000000e+000	0.000000e+000	0.000000e+000	0.000000e+000
145200000	0.000000e+000	0.000000e+000	-2.357365e-002	9.043036e-002	0.000000e+000	0.000000e+000	0.000000e+000	0.000000e+000
145300000	0.000000e+000	0.000000e+000	-2.269650e-002	8.919395e-002	0.000000e+000	0.000000e+000	0.000000e+000	0.000000e+000
145400000	0.000000e+000	0.000000e+000	-2.189877e-002	8.808231e-002	0.000000e+000	0.000000e+000	0.000000e+000	0.000000e+000
145500000	0.000000e+000	0.000000e+000	-2.090858e-002	8.688536e-002	0.000000e+000	0.000000e+000	0.000000e+000	0.000000e+000
145600000	0.000000e+000	0.000000e+000	-1.998119e-002	8.572149e-002	0.000000e+000	0.000000e+000	0.000000e+000	0.000000e+000
145700000	0.000000e+000	0.000000e+000	-1.918643e-002	8.432000e-002	0.000000e+000	0.000000e+000	0.000000e+000	0.000000e+000
145800000	0.000000e+000	0.000000e+000	-1.839269e-002	8.330897e-002	0.000000e+000	0.000000e+000	0.000000e+000	0.000000e+000
145900000	0.000000e+000	0.000000e+000	-1.747384e-002	8.188801e-002	0.000000e+000	0.000000e+000	0.000000e+000	0.000000e+000
146000000	0.000000e+000	0.000000e+000	-1.674165e-002	8.075305e-002	0.000000e+000	0.000000e+000	0.000000e+000	0.000000e+000
146100000	0.000000e+000	0.000000e+000	-1.602376e-002	7.949189e-002	0.000000e+000	0.000000e+000	0.000000e+000	0.000000e+000
146200000	0.000000e+000	0.000000e+000	-1.528981e-002	7.823371e-002	0.000000e+000	0.000000e+000	0.000000e+000	0.000000e+000
146300000	0.000000e+000	0.000000e+000	-1.439318e-002	7.705213e-002	0.000000e+000	0.000000e+000	0.000000e+000	0.000000e+000
146400000	0.000000e+000	0.000000e+000	-1.381998e-002	7.571309e-002	0.000000e+000	0.000000e+000	0.000000e+000	0.000000e+000
146500000	0.000000e+000	0.000000e+000	-1.310218e-002	7.462422e-002	0.000000e+000	0.000000e+000	0.000000e+000	0.000000e+000
146600000	0.000000e+000	0.000000e+000	-1.249053e-002	7.327452e-002	0.000000e+000	0.000000e+000	0.000000e+000	0.000000e+000
146700000	0.000000e+000	0.000000e+000	-1.184234e-002	7.200200e-002	0.000000e+000	0.000000e+000	0.000000e+000	0.000000e+000
146800000	0.000000e+000	0.000000e+000	-1.117438e-002	7.055909e-002	0.000000e+000	0.000000e+000	0.000000e+000	0.000000e+000
146900000	0.000000e+000	0.000000e+000	-1.050722e-002	6.931572e-002	0.000000e+000	0.000000e+000	0.000000e+000	0.000000e+000
147000000	0.000000e+000	0.000000e+000	-9.918787e-003	6.804653e-002	0.000000e+000	0.000000e+000	0.000000e+000	0.000000e+000
147100000	0.000000e+000	0.000000e+000	-9.327855e-003	6.684911e-002	0.000000e+000	0.000000e+000	0.000000e+000	0.000000e+000
147200000	0.000000e+000	0.000000e+000	-8.639129e-003	6.543899e-002	0.000000e+000	0.000000e+000	0.000000e+000	0.000000e+000
147300000	0.000000e+000	0.000000e+000	-8.336509e-003	6.408992e-002	0.000000e+000	0.000000e+000	0.000000e+000	0.000000e+000
147400000	0.000000e+000	0.000000e+000	-7.705457e-003	6.275876e-002	0.000000e+000	0.000000e+000	0.000000e+000	0.000000e+000
147500000	0.000000e+000	0.000000e+000	-7.408637e-003	6.153890e-002	0.000000e+000	0.000000e+000	0.000000e+000	0.000000e+000
147600000	0.000000e+000	0.000000e+000	-6.701406e-003	6.024499e-002	0.000000e+000	0.000000e+000	0.000000e+000	0.000000e+000
147700000	0.000000e+000	0.000000e+000	-6.374238e-003	5.894383e-002	0.000000e+000	0.000000e+000	0.000000e+000	0.000000e+000
147800000	0.000000e+000	0.000000e+000	-5.905319e-003	5.744402e-002	0.000000e+000	0.000000e+000	0.000000e+000	0.000000e+000
147900000	0.000000e+000	0.000000e+000	-5.514699e-003	5.623269e-002	0.000000e+000	0.000000e+000	0.000000e+000	0.000000e+000
148000000	0.000000e+000	0.000000e+000	-5.106012e-003	5.478762e-002	0.000000e+000	0.000000e+000	0.000000e+000	0.000000e+000
148100000	0.000000e+000	0.000000e+000	-4.851445e-003	5.344265e-002	0.000000e+000	0.000000e+000	0.000000e+000	0.000000e+000
148200000	0.000000e+000	0.000000e+000	-4.322031e-003	5.224022e-002	0.000000e+000	0.000000e+000	0.000000e+000	0.000000e+000
148300000	0.000000e+000	0.000000e+000	-4.024152e-003	5.090023e-002	0.000000e+000	0.000000e+000	0.000000e+000	0.000000e+000
148400000	0.000000e+000	0.000000e+000	-3.671694e-003	4.943993e-002	0.000000e+000	0.000000e+000	0.000000e+000	0.000000e+000
148500000	0.000000e+000	0.000000e+000	-3.568733e-003	4.809739e-002	0.000000e+000	0.000000e+000	0.000000e+000	0.000000e+000
148600000	0.000000e+000	0.000000e+000	-3.382853e-003	4.668440e-002	0.000000e+000	0.000000e+000	0.000000e+000	0.000000e+000
148700000	0.000000e+000	0.000000e+000	-3.050184e-003	4.533292e-002	0.000000e+000	0.000000e+000	0.000000e+000	0.000000e+000
148800000	0.000000e+000	0.000000e+000	-2.836652e-003	4.407982e-002	0.000000e+000	0.000000e+000	0.000000e+000	0.000000e+000
148900000	0.000000e+000	0.000000e+000	-2.737480e-003	4.277973e-002	0.000000e+000	0.000000e+000	0.000000e+000	0.000000e+000
149000000	0.000000e+000	0.000000e+000	-2.605054e-003	4.139090e-002	0.000000e+000	0.000000e+000	0.000000e+000	0.000000e+000
149100000	0.000000e+000	0.000000e+000	-2.240457e-003	4.003864e-002	0.000000e+000	0.000000e+000	0.000000e+000	0.000000e+000
149200000	0.000000e+000	0.000000e+000	-2.191658e-003	3.866404e-002	0.000000e+000	0.000000e+000	0.000000e+000	0.000000e+000
149300000	0.000000e+000	0.000000e+000	-2.105172e-003	3.738657e-002	0.000000e+000	0.000000e+000	0.000000e+000	0.000000e+000
149400000	0.000000e+000	0.000000e+000	-1.953271e-003	3.601943e-002	0.000000e+000	0.000000e+000	0.000000e+000	0.000000e+000
149500000	0.000000e+000	0.000000e+000	-1.915829e-003	3.470683e-002	0.000000e+000	0.000000e+000	0.000000e+000	0.000000e+000
149600000	0.000000e+000	0.000000e+000	-1.864317e-003	3.323811e-002	0.000000e+000	0.000000e+000	0.000000e+000	0.000000e+000
149700000	0.000000e+000	0.000000e+000	-1.722973e-003	3.207579e-002	0.000000e+000	0.000000e+000	0.000000e+000	0.000000e+000
149800000	0.000000e+000	0.000000e+000	-1.831698e-003	3.062463e-002	0.000000e+000	0.000000e+000	0.000000e+000	0.000000e+000
149900000	0.000000e+000	0.000000e+000	-1.843554e-003	2.927630e-002	0.000000e+000	0.000000e+000	0.000000e+000	0.000000e+000
150000000	0.000000e+000	0.000000e+000	-1.849109e-003	2.787915e-002	0.000000e+000	0.000000e+000	0.000000e+000	0.000000e+000
150100000	0.000000e+000	0.000000e+000	-1.886888e-003	2.664113e-002	0.000000e+000	0.000000e+000	0.000000e+000	0.000000e+000
150200000	0.000000e+000	0.000000e+000	-2.034535e-003	2.530618e-002	0.000000e+000	0.000000e+000	0.000000e+000	0.000000e+000
150300000	0.000000e+000	0.000000e+000	-2.038600e-003	2.377320e-002	0.000000e+000	0.000000e+000	0.000000e+000	0.000000e+000
150400000	0.000000e+000	0.000000e+000	-2.220392e-003	2.258650e-002	0.000000e+000	0.000000e+000	0.000000e+000	0.000000e+000
150500000	0.000000e+000	0.000000e+000	-2.369126e-003	2.132783e-002	0.000000e+000	0.000000e+000	0.000000e+000	0.000000e+000
150600000	0.000000e+000	0.000000e+000	-2.561348e-003	1.997898e-002	0.000000e+000	0.000000e+000	0.000000e+000	0.000000e+000
150700000	0.000000e+000	0.000000e+000	-2.754078e-003	1.850439e-002	0.000000e+000	0.000000e+000	0.000000e+000	0.000000e+000
150800000	0.000000e+000	0.000000e+000	-2.773684e-003	1.732099e-002	0.000000e+000	0.000000e+000	0.000000e+000	0.000000e+000
150900000	0.000000e+000	0.000000e+000	-3.284137e-003	1.593297e-002	0.000000e+000	0.000000e+000	0.000000e+000	0.000000e+000
151000000	0.000000e+000	0.000000e+000	-3.329717e-003	1.475865e-002	0.000000e+000	0.000000e+000	0.000000e+000	0.000000e+000
151100000	0.000000e+000	0.000000e+000	-3.788359e-003	1.342371e-002	0.000000e+000	0.000000e+000	0.000000e+000	0.000000e+000
151200000	0.000000e+000	0.000000e+000	-3.806278e-003	1.218589e-002	0.000000e+000	0.000000e+000	0.000000e+000	0.000000e+000
151300000	0.000000e+000	0.000000e+000	-4.251201e-003	1.086316e-002	0.000000e+000	0.000000e+000	0.000000e+000	0.000000e+000
151400000	0.000000e+000	0.000000e+000	-4.791614e-003	9.436818e-003	0.000000e+000	0.000000e+000	0.000000e+000	0.000000e+000
151500000	0.000000e+000	0.000000e+000	-5.151418e-003	8.249227e-003	0.000000e+000	0.000000e+000	0.000000e+000	0.000000e+000
151600000	0.000000e+000	0.000000e+000	-5.605245e-003	7.071463e-003	0.000000e+000	0.000000e+000	0.000000e+000	0.000000e+000
151700000	0.000000e+000	0.000000e+000	-5.788961e-003	5.695133e-003	0.000000e+000	0.000000e+000	0.000000e+000	0.000000e+000
151800000	0.000000e+000	0.000000e+000	-6.210936e-003	4.569754e-003	0.000000e+000	0.000000e+000	0.000000e+000	0.000000e+000
151900000	0.000000e+000	0.000000e+000	-6.670975e-003	3.135522e-003	0.000000e+000	0.000000e+000	0.000000e+000	0.000000e+000
152000000	0.000000e+000	0.000000e+000	-7.028698e-003	1.925651e-003	0.000000e+000	0.000000e+000	0.000000e+000	0.000000e+000
152100000	0.000000e+000	0.000000e+000	-7.660297e-003	6.830594e-004	0.000000e+000	0.000000e+000	0.000000e+000	0.000000e+000
152200000	0.000000e+000	0.000000e+000	-7.914183e-003	-5.359312e-004	0.000000e+000	0.000000e+000	0.000000e+000	0.000000e+000
152300000	0.000000e+000	0.000000e+000	-8.601419e-003	-1.765443e-003	0.000000e+000	0.000000e+000	0.000000e+000	0.000000e+000
152400000	0.000000e+000	0.000000e+000	-9.082758e-003	-3.074035e-003	0.000000e+000	0.000000e+000	0.000000e+000	0.000000e+000
152500000	0.000000e+000	0.000000e+000	-9.706789e-003	-4.117215e-003	0.000000e+000	0.000000e+000	0.000000e+000	0.000000e+000
152600000	0.000000e+000	0.000000e+000	-1.037617e-002	-5.510202e-003	0.000000e+000	0.000000e+000	0.000000e+000	0.000000e+000
152700000	0.000000e+000	0.000000e+000	-1.078417e-002	-6.647622e-003	0.000000e+000	0.000000e+000	0.000000e+000	0.000000e+000
152800000	0.000000e+000	0.000000e+000	-1.133506e-002	-7.945324e-003	0.000000e+000	0.000000e+000	0.000000e+000	0.000000e+000
152900000	0.000000e+000	0.000000e+000	-1.211122e-002	-8.787394e-003	0.000000e+000	0.000000e+000	0.000000e+000	0.000000e+000
153000000	0.000000e+000	0.000000e+000	-1.279012e-002	-1.027933e-002	0.000000e+000	0.000000e+000	0.000000e+000	0.000000e+000
153100000	0.000000e+000	0.000000e+000	-1.329550e-002	-1.133372e-002	0.000000e+000	0.000000e+000	0.000000e+000	0.000000e+000
153200000	0.000000e+000	0.000000e+000	-1.406957e-002	-1.239857e-002	0.000000e+000	0.000000e+000	0.000000e+000	0.000000e+000
153300000	0.000000e+000	0.000000e+000	-1.480789e-002	-1.350495e-002	0.000000e+000	0.000000e+000	0.000000e+000	0.000000e+000
153400000	0.000000e+000	0.000000e+000	-1.556546e-002	-1.462087e-002	0.000000e+000	0.000000e+000	0.000000e+000	0.000000e+000
153500000	0.000000e+000	0.000000e+000	-1.609310e-002	-1.585950e-002	0.000000e+000	0.000000e+000	0.000000e+000	0.000000e+000
153600000	0.000000e+000	0.000000e+000	-1.709133e-002	-1.677140e-002	0.000000e+000	0.000000e+000	0.000000e+000	0.000000e+000
153700000	0.000000e+000	0.000000e+000	-1.776953e-002	-1.811960e-002	0.000000e+000	0.000000e+000	0.000000e+000	0.000000e+000
153800000	0.000000e+000	0.000000e+000	-1.852733e-002	-1.903254e-002	0.000000e+000	0.000000e+000	0.000000e+000	0.000000e+000
153900000	0.000000e+000	0.000000e+000	-1.949364e-002	-2.004292e-002	0.000000e+000	0.000000e+000	0.000000e+000	0.000000e+000
154000000	0.000000e+000	0.000000e+000	-2.016574e-002	-2.103791e-002	0.000000e+000	0.000000e+000	0.000000e+000	0.000000e+000
154100000	0.000000e+000	0.000000e+000	-2.128976e-002	-2.207965e-002	0.000000e+000	0.000000e+000	0.000000e+000	0.000000e+000
154200000	0.000000e+000	0.000000e+000	-2.202094e-002	-2.348941e-002	0.000000e+000	0.000000e+000	0.000000e+000	0.000000e+000
154300000	0.000000e+000	0.000000e+000	-2.281547e-002	-2.416622e-002	0.000000e+000	0.000000e+000	0.000000e+000	0.000000e+000
154400000	0.000000e+000	0.000000e+000	-2.392123e-002	-2.529830e-002	0.000000e+000	0.000000e+000	0.000000e+000	0.000000e+000
154500000	0.000000e+000	0.000000e+000	-2.471686e-002	-2.616460e-002	0.000000e+000	0.000000e+000	0.000000e+000	0.000000e+000
154600000	0.000000e+000	0.000000e+000	-2.576698e-002	-2.723058e-002	0.000000e+000	0.000000e+000	0.000000e+000	0.000000e+000
154700000	0.000000e+000	0.000000e+000	-2.648046e-002	-2.805177e-002	0.000000e+000	0.000000e+000	0.000000e+000	0.000000e+000
154800000	0.000000e+000	0.000000e+000	-2.760853e-002	-2.906530e-002	0.000000e+000	0.000000e+000	0.000000e+000	0.000000e+000
154900000	0.000000e+000	0.000000e+000	-2.856416e-002	-3.018281e-002	0.000000e+000	0.000000e+000	0.000000e+000	0.000000e+000
155000000	0.000000e+000	0.000000e+000	-2.943288e-002	-3.098722e-002	0.000000e+000	0.000000e+000	0.000000e+000	0.000000e+000
155100000	0.000000e+000	0.000000e+000	-3.063980e-002	-3.183141e-002	0.000000e+000	0.000000e+000	0.000000e+000	0.000000e+000
155200000	0.000000e+000	0.000000e+000	-3.161710e-002	-3.275162e-002	0.000000e+000	0.000000e+000	0.000000e+000	0.000000e+000
155300000	0.000000e+000	0.000000e+000	-3.280993e-002	-3.369060e-002	0.000000e+000	0.000000e+000	0.000000e+000	0.000000e+000
155400000	0.000000e+000	0.000000e+000	-3.380918e-002	-3.446271e-002	0.000000e+000	0.000000e+000	0.000000e+000	0.000000e+000
155500000	0.000000e+000	0.000000e+000	-3.510284e-002	-3.541509e-002	0.000000e+000	0.000000e+000	0.000000e+000	0.000000e+000
155600000	0.000000e+000	0.000000e+000	-3.612252e-002	-3.625191e-002	0.000000e+000	0.000000e+000	0.000000e+000	0.000000e+000
155700000	0.000000e+000	0.000000e+000	-3.720422e-002	-3.697679e-002	0.000000e+000	0.000000e+000	0.000000e+000	0.000000e+000
155800000	0.000000e+000	0.000000e+000	-3.834456e-002	-3.776731e-002	0.000000e+000	0.000000e+000	0.000000e+000	0.000000e+000
